# vsim -vopt work.HvlTop work.hdlTop -voptargs="+acc=npr" -assertdebug "+UVM_TESTNAME=dma1dBlockTransferWithContinueSrcAndDesXsizeEqAndHwTiAndHiTo" "+UVM_VERBOSITY=UVM_HIGH" "+define+dmaBaseTest" -l dma1dBlockTransferWithContinueSrcAndDesXsizeEqAndHwTiAndHiTo/dma1dBlockTransferWithContinueSrcAndDesXsizeEqAndHwTiAndHiTo.log -sva -coverage -c -do "log -r /*; add wave -r /*; coverage save -onexit -assert -directive -cvg -codeAll dma1dBlockTransferWithContinueSrcAndDesXsizeEqAndHwTiAndHiTo/dma1dBlockTransferWithContinueSrcAndDesXsizeEqAndHwTiAndHiTo_coverage.ucdb; run -all; exit" -wlf dma1dBlockTransferWithContinueSrcAndDesXsizeEqAndHwTiAndHiTo/waveform.wlf 
# Start time: 16:46:36 on Jun 16,2026
# ** Note: (vsim-3812) Design is being optimized...
# ** Note: (vopt-143) Recognized 2 FSMs in module "data_fsm(fast)".
# ** Note: (vopt-143) Recognized 4 FSMs in module "biu(fast)".
# ** Note: (vopt-143) Recognized 1 FSM in module "cmd_fsm(fast)".
# ** Note: (vopt-143) Recognized 1 FSM in module "apb_slave(fast)".
# ** Warning: ../../src/hdlTop/hdlTop.sv(40): (vopt-2685) [TFMPC] - Too few port connections for 'u_dma'.  Expected 51, found 50.
# ** Warning: ../../src/hdlTop/hdlTop.sv(40): (vopt-2718) [TFMPC] - Missing connection for port 'boot_addr'.
# ** Warning: ../../src/hvlTop/dmaTest/sequences/triggerMasterSequences/triggerMasterSequence.sv(19): (vopt-2239) Treating stand-alone use of presumed external function as an implicit VOID cast.
# ** Warning: ../../src/hvlTop/dmaTest/dmaBaseTest.sv(59): (vopt-2240) Treating stand-alone use of function 'randomize' as an implicit VOID cast.
# ** Warning: ../../src/hvlTop/dmaTest/dma1dBlockTransferWithContinueSrcAndDesXsizeEqAndSwTiAndSiTo.sv(30): (vopt-2240) Treating stand-alone use of function 'randomize' as an implicit VOID cast.
# ** Warning: ../../src/hvlTop/dmaTest/dma1dBlockTransferWithContinueSrcAndDesXsizeEqAndSwTiAndSiTo.sv(194): (vopt-2875) Task "dump_config_to_file" is being called in function "build_phase".
# ** Warning: ../../src/hvlTop/dmaTest/dma1dSingleTransferWithSrcAndDesXsizeEq0AndHwTiAndHiTo.sv(32): (vopt-2240) Treating stand-alone use of function 'randomize' as an implicit VOID cast.
# ** Warning: ../../src/hvlTop/dmaTest/dma1dSingleTransferWithSrcAndDesXsizeEq0AndHwTiAndHiTo.sv(129): (vopt-2875) Task "dump_config_to_file" is being called in function "build_phase".
# ** Warning: ../../src/hvlTop/dmaTest/dma1dSingleTransferWithSrcXsizeEq0AndDesXsizeGreaterThan0AndHwTiAndHiTo.sv(32): (vopt-2240) Treating stand-alone use of function 'randomize' as an implicit VOID cast.
# ** Warning: ../../src/hvlTop/dmaTest/dma1dSingleTransferWithSrcXsizeEq0AndDesXsizeGreaterThan0AndHwTiAndHiTo.sv(130): (vopt-2875) Task "dump_config_to_file" is being called in function "build_phase".
# ** Warning: ../../src/hvlTop/dmaTest/dma1dSingleTransferWithContinueSrcXsizeGreaterThan0AndDesXsizeEq0AndHwTiAndHiTo.sv(27): (vopt-2240) Treating stand-alone use of function 'randomize' as an implicit VOID cast.
# ** Warning: ../../src/hvlTop/dmaTest/dma1dSingleTransferWithContinueSrcXsizeGreaterThan0AndDesXsizeEq0AndHwTiAndHiTo.sv(106): (vopt-2875) Task "dump_config_to_file" is being called in function "build_phase".
# ** Warning: ../../src/hvlTop/dmaTest/dma1dSingleTransferWithFillSrcXsizeGreaterThan0AndDesXsizeEq0AndHwTiAndHiTo.sv(32): (vopt-2240) Treating stand-alone use of function 'randomize' as an implicit VOID cast.
# ** Warning: ../../src/hvlTop/dmaTest/dma1dSingleTransferWithFillSrcXsizeGreaterThan0AndDesXsizeEq0AndHwTiAndHiTo.sv(129): (vopt-2875) Task "dump_config_to_file" is being called in function "build_phase".
# ** Warning: ../../src/hvlTop/dmaTest/dma1dSingleTransferWithWrapSrcXsizeGreaterThan0AndDesXsizeEq0AndHwTiAndHiTo.sv(32): (vopt-2240) Treating stand-alone use of function 'randomize' as an implicit VOID cast.
# ** Warning: ../../src/hvlTop/dmaTest/dma1dSingleTransferWithWrapSrcXsizeGreaterThan0AndDesXsizeEq0AndHwTiAndHiTo.sv(111): (vopt-2875) Task "dump_config_to_file" is being called in function "build_phase".
# ** Warning: ../../src/hvlTop/dmaTest/dma1dSingleTransferWithContinueSrcAndDesXsizeEqAndHwTiAndHiTo.sv(25): (vopt-2240) Treating stand-alone use of function 'randomize' as an implicit VOID cast.
# ** Warning: ../../src/hvlTop/dmaTest/dma1dSingleTransferWithContinueSrcAndDesXsizeEqAndHwTiAndHiTo.sv(106): (vopt-2875) Task "dump_config_to_file" is being called in function "build_phase".
# ** Warning: ../../src/hvlTop/dmaTest/dma1dSingleTransferWithFillSrcAndDesXsizeEqAndHwTiAndHiTo.sv(27): (vopt-2240) Treating stand-alone use of function 'randomize' as an implicit VOID cast.
# ** Warning: ../../src/hvlTop/dmaTest/dma1dSingleTransferWithFillSrcAndDesXsizeEqAndHwTiAndHiTo.sv(106): (vopt-2875) Task "dump_config_to_file" is being called in function "build_phase".
# ** Warning: ../../src/hvlTop/dmaTest/dma1dSingleTransferWithWrapSrcAndDesXsizeEqAndHwTiAndHiTo.sv(32): (vopt-2240) Treating stand-alone use of function 'randomize' as an implicit VOID cast.
# ** Warning: ../../src/hvlTop/dmaTest/dma1dSingleTransferWithWrapSrcAndDesXsizeEqAndHwTiAndHiTo.sv(129): (vopt-2875) Task "dump_config_to_file" is being called in function "build_phase".
# ** Warning: ../../src/hvlTop/dmaTest/dma1dSingleTransferWithWrapSrcGreaterThanDesXsizeAndHwTiAndHiTo.sv(32): (vopt-2240) Treating stand-alone use of function 'randomize' as an implicit VOID cast.
# ** Warning: ../../src/hvlTop/dmaTest/dma1dSingleTransferWithWrapSrcGreaterThanDesXsizeAndHwTiAndHiTo.sv(129): (vopt-2875) Task "dump_config_to_file" is being called in function "build_phase".
# ** Warning: ../../src/hvlTop/dmaTest/dma1dSingleTransferWithFillSrcGreaterThanDesXsizeAndHwTiAndHiTo.sv(30): (vopt-2240) Treating stand-alone use of function 'randomize' as an implicit VOID cast.
# ** Warning: ../../src/hvlTop/dmaTest/dma1dSingleTransferWithFillSrcGreaterThanDesXsizeAndHwTiAndHiTo.sv(109): (vopt-2875) Task "dump_config_to_file" is being called in function "build_phase".
# ** Warning: ../../src/hvlTop/dmaTest/dma1dSingleTransferWithContinueSrcGreaterThanDesXsizeAndHwTiAndHiTo.sv(26): (vopt-2240) Treating stand-alone use of function 'randomize' as an implicit VOID cast.
# ** Warning: ../../src/hvlTop/dmaTest/dma1dSingleTransferWithContinueSrcGreaterThanDesXsizeAndHwTiAndHiTo.sv(105): (vopt-2875) Task "dump_config_to_file" is being called in function "build_phase".
# ** Warning: ../../src/hvlTop/dmaTest/dma1dSingleTransferWithWrapSrcSmallerThanDesXsizeAndHwTiAndHiTo.sv(35): (vopt-2240) Treating stand-alone use of function 'randomize' as an implicit VOID cast.
# ** Warning: ../../src/hvlTop/dmaTest/dma1dSingleTransferWithWrapSrcSmallerThanDesXsizeAndHwTiAndHiTo.sv(90): (vopt-2875) Task "dump_config_to_file" is being called in function "build_phase".
# ** Warning: ../../src/hvlTop/dmaTest/dma1dSingleTransferWithFillSrcSmallerThanDesXsizeAndHwTiAndHiTo.sv(30): (vopt-2240) Treating stand-alone use of function 'randomize' as an implicit VOID cast.
# ** Warning: ../../src/hvlTop/dmaTest/dma1dSingleTransferWithFillSrcSmallerThanDesXsizeAndHwTiAndHiTo.sv(110): (vopt-2875) Task "dump_config_to_file" is being called in function "build_phase".
# ** Warning: ../../src/hvlTop/dmaTest/dma1dSingleTransferWithContinueSrcSmallerThanDesXsizeAndHwTiAndHiTo.sv(27): (vopt-2240) Treating stand-alone use of function 'randomize' as an implicit VOID cast.
# ** Warning: ../../src/hvlTop/dmaTest/dma1dSingleTransferWithContinueSrcSmallerThanDesXsizeAndHwTiAndHiTo.sv(106): (vopt-2875) Task "dump_config_to_file" is being called in function "build_phase".
# ** Warning: ../../src/hvlTop/dmaTest/dma1dBlockTransferWithSrcAndDesXsizeEq0AndHwTiAndHiTo.sv(26): (vopt-2240) Treating stand-alone use of function 'randomize' as an implicit VOID cast.
# ** Warning: ../../src/hvlTop/dmaTest/dma1dBlockTransferWithSrcAndDesXsizeEq0AndHwTiAndHiTo.sv(105): (vopt-2875) Task "dump_config_to_file" is being called in function "build_phase".
# ** Warning: ../../src/hvlTop/dmaTest/dma1dBlockTransferWithSrcXsizeEq0AndDesXsizeGreaterThan0AndHwTiAndHiTo.sv(26): (vopt-2240) Treating stand-alone use of function 'randomize' as an implicit VOID cast.
# ** Warning: ../../src/hvlTop/dmaTest/dma1dBlockTransferWithSrcXsizeEq0AndDesXsizeGreaterThan0AndHwTiAndHiTo.sv(105): (vopt-2875) Task "dump_config_to_file" is being called in function "build_phase".
# ** Warning: ../../src/hvlTop/dmaTest/dma1dBlockTransferWithContinueSrcXsizeGreaterThan0AndDesXsizeEq0AndHwTiAndHiTo.sv(27): (vopt-2240) Treating stand-alone use of function 'randomize' as an implicit VOID cast.
# ** Warning: ../../src/hvlTop/dmaTest/dma1dBlockTransferWithContinueSrcXsizeGreaterThan0AndDesXsizeEq0AndHwTiAndHiTo.sv(105): (vopt-2875) Task "dump_config_to_file" is being called in function "build_phase".
# ** Warning: ../../src/hvlTop/dmaTest/dma1dBlockTransferWithFillSrcXsizeGreaterThan0AndDesXsizeEq0AndHwTiAndHiTo.sv(26): (vopt-2240) Treating stand-alone use of function 'randomize' as an implicit VOID cast.
# ** Warning: ../../src/hvlTop/dmaTest/dma1dBlockTransferWithFillSrcXsizeGreaterThan0AndDesXsizeEq0AndHwTiAndHiTo.sv(104): (vopt-2875) Task "dump_config_to_file" is being called in function "build_phase".
# ** Warning: ../../src/hvlTop/dmaTest/dma1dBlockTransferWithWrapSrcXsizeGreaterThan0AndDesXsizeEq0AndHwTiAndHiTo.sv(27): (vopt-2240) Treating stand-alone use of function 'randomize' as an implicit VOID cast.
# ** Warning: ../../src/hvlTop/dmaTest/dma1dBlockTransferWithWrapSrcXsizeGreaterThan0AndDesXsizeEq0AndHwTiAndHiTo.sv(106): (vopt-2875) Task "dump_config_to_file" is being called in function "build_phase".
# ** Warning: ../../src/hvlTop/dmaTest/dma1dBlockTransferWithContinueSrcAndDesXsizeEqAndHwTiAndHiTo.sv(31): (vopt-2240) Treating stand-alone use of function 'randomize' as an implicit VOID cast.
# ** Warning: ../../src/hvlTop/dmaTest/dma1dBlockTransferWithContinueSrcAndDesXsizeEqAndHwTiAndHiTo.sv(302): (vopt-2875) Task "dump_config_to_file" is being called in function "build_phase".
# ** Warning: ../../src/hvlTop/dmaTest/dma1dBlockTransferWithFillSrcAndDesXsizeEqAndHwTiAndHiTo.sv(29): (vopt-2240) Treating stand-alone use of function 'randomize' as an implicit VOID cast.
# ** Warning: ../../src/hvlTop/dmaTest/dma1dBlockTransferWithFillSrcAndDesXsizeEqAndHwTiAndHiTo.sv(109): (vopt-2875) Task "dump_config_to_file" is being called in function "build_phase".
# ** Warning: ../../src/hvlTop/dmaTest/dma1dBlockTransferWithWrapSrcAndDesXsizeEqAndHwTiAndHiTo.sv(26): (vopt-2240) Treating stand-alone use of function 'randomize' as an implicit VOID cast.
# ** Warning: ../../src/hvlTop/dmaTest/dma1dBlockTransferWithWrapSrcAndDesXsizeEqAndHwTiAndHiTo.sv(106): (vopt-2875) Task "dump_config_to_file" is being called in function "build_phase".
# ** Warning: ../../src/hvlTop/dmaTest/dma1dBlockTransferWithWrapSrcGreaterThanDesXsizeAndHwTiAndHiTo.sv(26): (vopt-2240) Treating stand-alone use of function 'randomize' as an implicit VOID cast.
# ** Warning: ../../src/hvlTop/dmaTest/dma1dBlockTransferWithWrapSrcGreaterThanDesXsizeAndHwTiAndHiTo.sv(106): (vopt-2875) Task "dump_config_to_file" is being called in function "build_phase".
# ** Warning: ../../src/hvlTop/dmaTest/dma1dBlockTransferWithFillSrcGreaterThanDesXsizeAndHwTiAndHiTo.sv(26): (vopt-2240) Treating stand-alone use of function 'randomize' as an implicit VOID cast.
# ** Warning: ../../src/hvlTop/dmaTest/dma1dBlockTransferWithFillSrcGreaterThanDesXsizeAndHwTiAndHiTo.sv(106): (vopt-2875) Task "dump_config_to_file" is being called in function "build_phase".
# ** Warning: ../../src/hvlTop/dmaTest/dma1dBlockTransferWithContinueSrcGreaterThanDesXsizeAndHwTiAndHiTo.sv(29): (vopt-2240) Treating stand-alone use of function 'randomize' as an implicit VOID cast.
# ** Warning: ../../src/hvlTop/dmaTest/dma1dBlockTransferWithContinueSrcGreaterThanDesXsizeAndHwTiAndHiTo.sv(191): (vopt-2875) Task "dump_config_to_file" is being called in function "build_phase".
# ** Warning: ../../src/hvlTop/dmaTest/dma1dBlockTransferWithWrapSrcSmallerThanDesXsizeAndHwTiAndHiTo.sv(27): (vopt-2240) Treating stand-alone use of function 'randomize' as an implicit VOID cast.
# ** Warning: ../../src/hvlTop/dmaTest/dma1dBlockTransferWithWrapSrcSmallerThanDesXsizeAndHwTiAndHiTo.sv(106): (vopt-2875) Task "dump_config_to_file" is being called in function "build_phase".
# ** Warning: ../../src/hvlTop/dmaTest/dma1dBlockTransferWithFillSrcSmallerThanDesXsizeAndHwTiAndHiTo.sv(26): (vopt-2240) Treating stand-alone use of function 'randomize' as an implicit VOID cast.
# ** Warning: ../../src/hvlTop/dmaTest/dma1dBlockTransferWithFillSrcSmallerThanDesXsizeAndHwTiAndHiTo.sv(106): (vopt-2875) Task "dump_config_to_file" is being called in function "build_phase".
# ** Warning: ../../src/hvlTop/dmaTest/dma1dBlockTransferWithContinueSrcSmallerThanDesXsizeAndHwTiAndHiTo.sv(27): (vopt-2240) Treating stand-alone use of function 'randomize' as an implicit VOID cast.
# ** Warning: ../../src/hvlTop/dmaTest/dma1dBlockTransferWithContinueSrcSmallerThanDesXsizeAndHwTiAndHiTo.sv(107): (vopt-2875) Task "dump_config_to_file" is being called in function "build_phase".
# //  Questa Sim
# //  Version 10.6c linux Jul 25 2017
# //
# //  Copyright 1991-2017 Mentor Graphics Corporation
# //  All Rights Reserved.
# //
# //  QuestaSim and its associated documentation contain trade
# //  secrets and commercial or financial information that are the property of
# //  Mentor Graphics Corporation and are privileged, confidential,
# //  and exempt from disclosure under the Freedom of Information Act,
# //  5 U.S.C. Section 552. Furthermore, this information
# //  is prohibited from disclosure under the Trade Secrets Act,
# //  18 U.S.C. Section 1905.
# //
# Loading sv_std.std
# Loading work.axi4_master_driver_bfm(fast)
# Loading work.triggerMasterDriverBfm(fast)
# Loading work.interruptSlaveDriverBfm(fast)
# Loading work.interruptSlaveMonitorBfm(fast)
# Loading work.interruptGlobalPkg(fast)
# Loading mtiUvm.uvm_pkg
# Loading work.interruptSlavePkg(fast)
# Loading work.apb_master_driver_bfm(fast)
# Loading work.apb_master_monitor_bfm(fast)
# Loading work.apb_global_pkg(fast)
# Loading work.apb_master_pkg(fast)
# Loading work.configUnitEnvPkg(fast)
# Loading work.axi4_globals_pkg(fast)
# Loading work.dmaGlobalPkg(fast)
# Loading work.axi4_slave_pkg(fast)
# Loading work.axi4_master_pkg(fast)
# Loading work.triggerGlobalPkg(fast)
# Loading work.triggerSlavePkg(fast)
# Loading work.triggerMasterPkg(fast)
# Loading work.peripheralEnvPkg(fast)
# Loading work.topEnvPkg(fast)
# Loading work.configUnitVirtualSeqPkg(fast)
# Loading work.triggerMasterSequencePkg(fast)
# Loading work.axi4_slave_seq_pkg(fast)
# Loading work.peripheralVirtualSeqPkg(fast)
# Loading work.topVirtualSeqPkg(fast)
# Loading work.dmaTestPkg(fast)
# Loading work.axi4_master_monitor_bfm(fast)
# Loading work.axi4_slave_driver_bfm(fast)
# Loading work.axi4_slave_monitor_bfm(fast)
# Loading work.triggerSlaveMonitorBfm(fast)
# Loading work.triggerSlaveDriverBfm(fast)
# Loading work.triggerMasterMonitorBfm(fast)
# Loading work.HvlTop(fast)
# Loading work.hdlTop(fast)
# Loading work.apb_if_sv_unit(fast)
# Loading work.apb_if(fast)
# Loading work.interruptInterface_sv_unit(fast)
# Loading work.interruptInterface(fast)
# Loading work.top_mod(fast)
# Loading work.apb_reg(fast)
# Loading work.apb_slave(fast)
# Loading work.register_bank(fast)
# Loading work.global_channel(fast)
# Loading work.dma_channel(fast)
# Loading work.internal_reg(fast)
# Loading work.partselect(fast)
# Loading work.cmd_fsm(fast)
# Loading work.mux_logic(fast)
# Loading work.mux(fast)
# Loading work.data_fsm(fast)
# Loading work.biu(fast)
# Loading work.trigger_matrix(fast)
# Loading work.AxiGlobalPackage(fast)
# Loading work.interrconnect_sv_unit(fast)
# Loading work.AxiInterconnect(fast)
# Loading work.axi4_master_agent_bfm(fast)
# Loading work.axi4_master_driver_bfm_sv_unit(fast)
# Loading work.axi4_master_driver_bfm(fast)
# Loading work.axi4_master_monitor_bfm_sv_unit(fast)
# Loading work.axi4_master_monitor_bfm(fast)
# Loading work.axi4_slave_agent_bfm(fast)
# Loading work.axi4_slave_driver_bfm_sv_unit(fast)
# Loading work.axi4_slave_driver_bfm(fast)
# Loading work.axi4_slave_monitor_bfm_sv_unit(fast)
# Loading work.axi4_slave_monitor_bfm(fast)
# Loading work.triggerMasterAgentBfm(fast)
# Loading work.triggerMasterDriverBfm(fast)
# Loading work.triggerMasterMonitorBfm(fast)
# Loading work.triggerSlaveAgentBfm(fast)
# Loading work.triggerSlaveDriverBfm(fast)
# Loading work.triggerSlaveMonitorBfm(fast)
# Loading work.axi4_master_agent_bfm(fast__1)
# Loading work.axi4_slave_agent_bfm(fast__1)
# Loading work.triggerMasterAgentBfm(fast__1)
# Loading work.triggerSlaveAgentBfm(fast__1)
# Loading work.axi4_master_agent_bfm(fast__2)
# Loading work.axi4_slave_agent_bfm(fast__2)
# Loading work.triggerMasterAgentBfm(fast__2)
# Loading work.triggerSlaveAgentBfm(fast__2)
# Loading work.axi4_master_agent_bfm(fast__3)
# Loading work.axi4_slave_agent_bfm(fast__3)
# Loading work.triggerMasterAgentBfm(fast__3)
# Loading work.triggerSlaveAgentBfm(fast__3)
# Loading work.apb_master_agent_bfm(fast)
# Loading work.apb_master_driver_bfm_sv_unit(fast)
# Loading work.apb_master_driver_bfm(fast)
# Loading work.apb_master_monitor_bfm_sv_unit(fast)
# Loading work.apb_master_monitor_bfm(fast)
# Loading work.interruptSlaveAgentBfm(fast)
# Loading work.interruptSlaveDriverBfm(fast)
# Loading work.interruptSlaveMonitorBfm(fast)
# Loading work.interruptMasterAgentBfm(fast)
# Loading work.interruptMasterDriverBfm(fast)
# Loading work.interruptMasterMonitorBfm(fast)
# Loading mtiUvm.questa_uvm_pkg(fast)
# Loading work.axi4_if_sv_unit(fast)
# Loading work.axi4_if(fast__1)
# Loading work.axi4_if(fast__2)
# Loading work.triggerInterface(fast)
# Loading work.interruptMasterDriverBfm(fast)
# Loading work.interruptMasterMonitorBfm(fast)
# ** Warning: (vsim-3015) ../../src/hdlTop/hdlTop.sv(40): [PCDPC] - Port size (1) does not match connection size (32) for port 'boot_en'. The port definition is at: ../../../RTL/top_mod.v(17).
#    Time: 0 ps  Iteration: 0  Instance: /hdlTop/u_dma File: ../../../RTL/top_mod.v
# ** Warning: (vsim-3015) ../../src/hdlTop/hdlTop.sv(40): [PCDPC] - Port size (6) does not match connection size (4) for port 'trig_req'. The port definition is at: ../../../RTL/top_mod.v(31).
#    Time: 0 ps  Iteration: 0  Instance: /hdlTop/u_dma File: ../../../RTL/top_mod.v
# ** Warning: (vsim-3015) ../../src/hdlTop/hdlTop.sv(40): [PCDPC] - Port size (12) does not match connection size (8) for port 'trig_req_type'. The port definition is at: ../../../RTL/top_mod.v(32).
#    Time: 0 ps  Iteration: 0  Instance: /hdlTop/u_dma File: ../../../RTL/top_mod.v
# ** Warning: (vsim-3015) ../../src/hdlTop/hdlTop.sv(40): [PCDPC] - Port size (6) does not match connection size (4) for port 'trig_ack'. The port definition is at: ../../../RTL/top_mod.v(33).
#    Time: 0 ps  Iteration: 0  Instance: /hdlTop/u_dma File: ../../../RTL/top_mod.v
# ** Warning: (vsim-3015) ../../src/hdlTop/hdlTop.sv(40): [PCDPC] - Port size (12) does not match connection size (8) for port 'trig_ack_type'. The port definition is at: ../../../RTL/top_mod.v(34).
#    Time: 0 ps  Iteration: 0  Instance: /hdlTop/u_dma File: ../../../RTL/top_mod.v
# ** Warning: (vsim-3015) ../../src/hdlTop/hdlTop.sv(40): [PCDPC] - Port size (6) does not match connection size (4) for port 'trig_out_req'. The port definition is at: ../../../RTL/top_mod.v(36).
#    Time: 0 ps  Iteration: 0  Instance: /hdlTop/u_dma File: ../../../RTL/top_mod.v
# ** Warning: (vsim-3015) ../../src/hdlTop/hdlTop.sv(40): [PCDPC] - Port size (6) does not match connection size (4) for port 'trig_out_ack'. The port definition is at: ../../../RTL/top_mod.v(37).
#    Time: 0 ps  Iteration: 0  Instance: /hdlTop/u_dma File: ../../../RTL/top_mod.v
# ** Warning: (vsim-3015) ../../src/hdlTop/hdlTop.sv(40): [PCDPC] - Port size (8) does not match connection size (4) for port 'AWLEN_D'. The port definition is at: ../../../RTL/top_mod.v(64).
#    Time: 0 ps  Iteration: 0  Instance: /hdlTop/u_dma File: ../../../RTL/top_mod.v
# ** Warning: (vsim-3015) ../../src/hdlTop/hdlTop.sv(40): [PCDPC] - Port size (3) does not match connection size (1) for port 'IRQ'. The port definition is at: ../../../RTL/top_mod.v(73).
#    Time: 0 ps  Iteration: 0  Instance: /hdlTop/u_dma File: ../../../RTL/top_mod.v
# ** Warning: (vsim-3015) ../../../RTL/top_mod.v(423): [PCDPC] - Port size (1) does not match connection size (3) for port 'IRQ'. The port definition is at: ../../../RTL/global_channel.v(11).
#    Time: 0 ps  Iteration: 0  Instance: /hdlTop/u_dma/dut_global_channel File: ../../../RTL/global_channel.v
# ** Warning: (vsim-3839) ../../src/hdlTop/interrconnect.sv(351): Variable '/hdlTop/axi4InterfaceHandle[0]/rready', driven via a port connection, is multiply driven. See ../../src/hdlTop/axiMasterAgentBfm/axi4_master_agent_bfm.sv(18).
#    Time: 0 ps  Iteration: 0  Region: /hdlTop/inter/m2s_routing[0] File: ../../src/hdlTop/interrconnect.sv
# ** Warning: (vsim-3839) ../../src/hdlTop/interrconnect.sv(349): Variable '/hdlTop/axi4InterfaceHandle[0]/arvalid', driven via a port connection, is multiply driven. See ../../src/hdlTop/axiMasterAgentBfm/axi4_master_agent_bfm.sv(18).
#    Time: 0 ps  Iteration: 0  Region: /hdlTop/inter/m2s_routing[0] File: ../../src/hdlTop/interrconnect.sv
# ** Warning: (vsim-3839) ../../src/hdlTop/interrconnect.sv(348): Variable '/hdlTop/axi4InterfaceHandle[0]/arqos', driven via a port connection, is multiply driven. See ../../src/hdlTop/axiMasterAgentBfm/axi4_master_agent_bfm.sv(18).
#    Time: 0 ps  Iteration: 0  Region: /hdlTop/inter/m2s_routing[0] File: ../../src/hdlTop/interrconnect.sv
# ** Warning: (vsim-3839) ../../src/hdlTop/interrconnect.sv(347): Variable '/hdlTop/axi4InterfaceHandle[0]/arprot', driven via a port connection, is multiply driven. See ../../src/hdlTop/axiMasterAgentBfm/axi4_master_agent_bfm.sv(18).
#    Time: 0 ps  Iteration: 0  Region: /hdlTop/inter/m2s_routing[0] File: ../../src/hdlTop/interrconnect.sv
# ** Warning: (vsim-3839) ../../src/hdlTop/interrconnect.sv(346): Variable '/hdlTop/axi4InterfaceHandle[0]/arcache', driven via a port connection, is multiply driven. See ../../src/hdlTop/axiMasterAgentBfm/axi4_master_agent_bfm.sv(18).
#    Time: 0 ps  Iteration: 0  Region: /hdlTop/inter/m2s_routing[0] File: ../../src/hdlTop/interrconnect.sv
# ** Warning: (vsim-3839) ../../src/hdlTop/interrconnect.sv(345): Variable '/hdlTop/axi4InterfaceHandle[0]/arlock', driven via a port connection, is multiply driven. See ../../src/hdlTop/axiMasterAgentBfm/axi4_master_agent_bfm.sv(18).
#    Time: 0 ps  Iteration: 0  Region: /hdlTop/inter/m2s_routing[0] File: ../../src/hdlTop/interrconnect.sv
# ** Warning: (vsim-3839) ../../src/hdlTop/interrconnect.sv(344): Variable '/hdlTop/axi4InterfaceHandle[0]/arburst', driven via a port connection, is multiply driven. See ../../src/hdlTop/axiMasterAgentBfm/axi4_master_agent_bfm.sv(18).
#    Time: 0 ps  Iteration: 0  Region: /hdlTop/inter/m2s_routing[0] File: ../../src/hdlTop/interrconnect.sv
# ** Warning: (vsim-3839) ../../src/hdlTop/interrconnect.sv(343): Variable '/hdlTop/axi4InterfaceHandle[0]/arsize', driven via a port connection, is multiply driven. See ../../src/hdlTop/axiMasterAgentBfm/axi4_master_agent_bfm.sv(18).
#    Time: 0 ps  Iteration: 0  Region: /hdlTop/inter/m2s_routing[0] File: ../../src/hdlTop/interrconnect.sv
# ** Warning: (vsim-3839) ../../src/hdlTop/interrconnect.sv(342): Variable '/hdlTop/axi4InterfaceHandle[0]/arlen', driven via a port connection, is multiply driven. See ../../src/hdlTop/axiMasterAgentBfm/axi4_master_agent_bfm.sv(18).
#    Time: 0 ps  Iteration: 0  Region: /hdlTop/inter/m2s_routing[0] File: ../../src/hdlTop/interrconnect.sv
# ** Warning: (vsim-3839) ../../src/hdlTop/interrconnect.sv(341): Variable '/hdlTop/axi4InterfaceHandle[0]/araddr', driven via a port connection, is multiply driven. See ../../src/hdlTop/axiMasterAgentBfm/axi4_master_agent_bfm.sv(18).
#    Time: 0 ps  Iteration: 0  Region: /hdlTop/inter/m2s_routing[0] File: ../../src/hdlTop/interrconnect.sv
# ** Warning: (vsim-3839) ../../src/hdlTop/interrconnect.sv(340): Variable '/hdlTop/axi4InterfaceHandle[0]/arid', driven via a port connection, is multiply driven. See ../../src/hdlTop/axiMasterAgentBfm/axi4_master_agent_bfm.sv(18).
#    Time: 0 ps  Iteration: 0  Region: /hdlTop/inter/m2s_routing[0] File: ../../src/hdlTop/interrconnect.sv
# ** Warning: (vsim-3839) ../../src/hdlTop/interrconnect.sv(335): Variable '/hdlTop/axi4InterfaceHandle[0]/bready', driven via a port connection, is multiply driven. See ../../src/hdlTop/axiMasterAgentBfm/axi4_master_agent_bfm.sv(18).
#    Time: 0 ps  Iteration: 0  Region: /hdlTop/inter/m2s_routing[0] File: ../../src/hdlTop/interrconnect.sv
# ** Warning: (vsim-3839) ../../src/hdlTop/interrconnect.sv(334): Variable '/hdlTop/axi4InterfaceHandle[0]/wvalid', driven via a port connection, is multiply driven. See ../../src/hdlTop/axiMasterAgentBfm/axi4_master_agent_bfm.sv(18).
#    Time: 0 ps  Iteration: 0  Region: /hdlTop/inter/m2s_routing[0] File: ../../src/hdlTop/interrconnect.sv
# ** Warning: (vsim-3839) ../../src/hdlTop/interrconnect.sv(333): Variable '/hdlTop/axi4InterfaceHandle[0]/wlast', driven via a port connection, is multiply driven. See ../../src/hdlTop/axiMasterAgentBfm/axi4_master_agent_bfm.sv(18).
#    Time: 0 ps  Iteration: 0  Region: /hdlTop/inter/m2s_routing[0] File: ../../src/hdlTop/interrconnect.sv
# ** Warning: (vsim-3839) ../../src/hdlTop/interrconnect.sv(332): Variable '/hdlTop/axi4InterfaceHandle[0]/wstrb', driven via a port connection, is multiply driven. See ../../src/hdlTop/axiMasterAgentBfm/axi4_master_agent_bfm.sv(18).
#    Time: 0 ps  Iteration: 0  Region: /hdlTop/inter/m2s_routing[0] File: ../../src/hdlTop/interrconnect.sv
# ** Warning: (vsim-3839) ../../src/hdlTop/interrconnect.sv(331): Variable '/hdlTop/axi4InterfaceHandle[0]/wdata', driven via a port connection, is multiply driven. See ../../src/hdlTop/axiMasterAgentBfm/axi4_master_agent_bfm.sv(18).
#    Time: 0 ps  Iteration: 0  Region: /hdlTop/inter/m2s_routing[0] File: ../../src/hdlTop/interrconnect.sv
# ** Warning: (vsim-3839) ../../src/hdlTop/interrconnect.sv(329): Variable '/hdlTop/axi4InterfaceHandle[0]/awvalid', driven via a port connection, is multiply driven. See ../../src/hdlTop/axiMasterAgentBfm/axi4_master_agent_bfm.sv(18).
#    Time: 0 ps  Iteration: 0  Region: /hdlTop/inter/m2s_routing[0] File: ../../src/hdlTop/interrconnect.sv
# ** Warning: (vsim-3839) ../../src/hdlTop/interrconnect.sv(328): Variable '/hdlTop/axi4InterfaceHandle[0]/awqos', driven via a port connection, is multiply driven. See ../../src/hdlTop/axiMasterAgentBfm/axi4_master_agent_bfm.sv(18).
#    Time: 0 ps  Iteration: 0  Region: /hdlTop/inter/m2s_routing[0] File: ../../src/hdlTop/interrconnect.sv
# ** Warning: (vsim-3839) ../../src/hdlTop/interrconnect.sv(327): Variable '/hdlTop/axi4InterfaceHandle[0]/awprot', driven via a port connection, is multiply driven. See ../../src/hdlTop/axiMasterAgentBfm/axi4_master_agent_bfm.sv(18).
#    Time: 0 ps  Iteration: 0  Region: /hdlTop/inter/m2s_routing[0] File: ../../src/hdlTop/interrconnect.sv
# ** Warning: (vsim-3839) ../../src/hdlTop/interrconnect.sv(326): Variable '/hdlTop/axi4InterfaceHandle[0]/awcache', driven via a port connection, is multiply driven. See ../../src/hdlTop/axiMasterAgentBfm/axi4_master_agent_bfm.sv(18).
#    Time: 0 ps  Iteration: 0  Region: /hdlTop/inter/m2s_routing[0] File: ../../src/hdlTop/interrconnect.sv
# ** Warning: (vsim-3839) ../../src/hdlTop/interrconnect.sv(325): Variable '/hdlTop/axi4InterfaceHandle[0]/awlock', driven via a port connection, is multiply driven. See ../../src/hdlTop/axiMasterAgentBfm/axi4_master_agent_bfm.sv(18).
#    Time: 0 ps  Iteration: 0  Region: /hdlTop/inter/m2s_routing[0] File: ../../src/hdlTop/interrconnect.sv
# ** Warning: (vsim-3839) ../../src/hdlTop/interrconnect.sv(324): Variable '/hdlTop/axi4InterfaceHandle[0]/awburst', driven via a port connection, is multiply driven. See ../../src/hdlTop/axiMasterAgentBfm/axi4_master_agent_bfm.sv(18).
#    Time: 0 ps  Iteration: 0  Region: /hdlTop/inter/m2s_routing[0] File: ../../src/hdlTop/interrconnect.sv
# ** Warning: (vsim-3839) ../../src/hdlTop/interrconnect.sv(323): Variable '/hdlTop/axi4InterfaceHandle[0]/awsize', driven via a port connection, is multiply driven. See ../../src/hdlTop/axiMasterAgentBfm/axi4_master_agent_bfm.sv(18).
#    Time: 0 ps  Iteration: 0  Region: /hdlTop/inter/m2s_routing[0] File: ../../src/hdlTop/interrconnect.sv
# ** Warning: (vsim-3839) ../../src/hdlTop/interrconnect.sv(322): Variable '/hdlTop/axi4InterfaceHandle[0]/awlen', driven via a port connection, is multiply driven. See ../../src/hdlTop/axiMasterAgentBfm/axi4_master_agent_bfm.sv(18).
#    Time: 0 ps  Iteration: 0  Region: /hdlTop/inter/m2s_routing[0] File: ../../src/hdlTop/interrconnect.sv
# ** Warning: (vsim-3839) ../../src/hdlTop/interrconnect.sv(321): Variable '/hdlTop/axi4InterfaceHandle[0]/awaddr', driven via a port connection, is multiply driven. See ../../src/hdlTop/axiMasterAgentBfm/axi4_master_agent_bfm.sv(18).
#    Time: 0 ps  Iteration: 0  Region: /hdlTop/inter/m2s_routing[0] File: ../../src/hdlTop/interrconnect.sv
# ** Warning: (vsim-3839) ../../src/hdlTop/interrconnect.sv(320): Variable '/hdlTop/axi4InterfaceHandle[0]/awid', driven via a port connection, is multiply driven. See ../../src/hdlTop/axiMasterAgentBfm/axi4_master_agent_bfm.sv(18).
#    Time: 0 ps  Iteration: 0  Region: /hdlTop/inter/m2s_routing[0] File: ../../src/hdlTop/interrconnect.sv
# ** Warning: (vsim-3839) ../../src/hdlTop/interrconnect.sv(316): Variable '/hdlTop/axi4InterfaceHandle[0]/arvalid', driven via a port connection, is multiply driven. See ../../src/hdlTop/axiMasterAgentBfm/axi4_master_agent_bfm.sv(18).
#    Time: 0 ps  Iteration: 0  Region: /hdlTop/inter/m2s_routing[0] File: ../../src/hdlTop/interrconnect.sv
# ** Warning: (vsim-3839) ../../src/hdlTop/interrconnect.sv(315): Variable '/hdlTop/axi4InterfaceHandle[0]/wvalid', driven via a port connection, is multiply driven. See ../../src/hdlTop/axiMasterAgentBfm/axi4_master_agent_bfm.sv(18).
#    Time: 0 ps  Iteration: 0  Region: /hdlTop/inter/m2s_routing[0] File: ../../src/hdlTop/interrconnect.sv
# ** Warning: (vsim-3839) ../../src/hdlTop/interrconnect.sv(314): Variable '/hdlTop/axi4InterfaceHandle[0]/awvalid', driven via a port connection, is multiply driven. See ../../src/hdlTop/axiMasterAgentBfm/axi4_master_agent_bfm.sv(18).
#    Time: 0 ps  Iteration: 0  Region: /hdlTop/inter/m2s_routing[0] File: ../../src/hdlTop/interrconnect.sv
# ** Warning: (vsim-3839) ../../src/hdlTop/interrconnect.sv(351): Variable '/hdlTop/axi4InterfaceHandle[1]/rready', driven via a port connection, is multiply driven. See ../../src/hdlTop/axiMasterAgentBfm/axi4_master_agent_bfm.sv(18).
#    Time: 0 ps  Iteration: 0  Region: /hdlTop/inter/m2s_routing[1] File: ../../src/hdlTop/interrconnect.sv
# ** Warning: (vsim-3839) ../../src/hdlTop/interrconnect.sv(349): Variable '/hdlTop/axi4InterfaceHandle[1]/arvalid', driven via a port connection, is multiply driven. See ../../src/hdlTop/axiMasterAgentBfm/axi4_master_agent_bfm.sv(18).
#    Time: 0 ps  Iteration: 0  Region: /hdlTop/inter/m2s_routing[1] File: ../../src/hdlTop/interrconnect.sv
# ** Warning: (vsim-3839) ../../src/hdlTop/interrconnect.sv(348): Variable '/hdlTop/axi4InterfaceHandle[1]/arqos', driven via a port connection, is multiply driven. See ../../src/hdlTop/axiMasterAgentBfm/axi4_master_agent_bfm.sv(18).
#    Time: 0 ps  Iteration: 0  Region: /hdlTop/inter/m2s_routing[1] File: ../../src/hdlTop/interrconnect.sv
# ** Warning: (vsim-3839) ../../src/hdlTop/interrconnect.sv(347): Variable '/hdlTop/axi4InterfaceHandle[1]/arprot', driven via a port connection, is multiply driven. See ../../src/hdlTop/axiMasterAgentBfm/axi4_master_agent_bfm.sv(18).
#    Time: 0 ps  Iteration: 0  Region: /hdlTop/inter/m2s_routing[1] File: ../../src/hdlTop/interrconnect.sv
# ** Warning: (vsim-3839) ../../src/hdlTop/interrconnect.sv(346): Variable '/hdlTop/axi4InterfaceHandle[1]/arcache', driven via a port connection, is multiply driven. See ../../src/hdlTop/axiMasterAgentBfm/axi4_master_agent_bfm.sv(18).
#    Time: 0 ps  Iteration: 0  Region: /hdlTop/inter/m2s_routing[1] File: ../../src/hdlTop/interrconnect.sv
# ** Warning: (vsim-3839) ../../src/hdlTop/interrconnect.sv(345): Variable '/hdlTop/axi4InterfaceHandle[1]/arlock', driven via a port connection, is multiply driven. See ../../src/hdlTop/axiMasterAgentBfm/axi4_master_agent_bfm.sv(18).
#    Time: 0 ps  Iteration: 0  Region: /hdlTop/inter/m2s_routing[1] File: ../../src/hdlTop/interrconnect.sv
# ** Warning: (vsim-3839) ../../src/hdlTop/interrconnect.sv(344): Variable '/hdlTop/axi4InterfaceHandle[1]/arburst', driven via a port connection, is multiply driven. See ../../src/hdlTop/axiMasterAgentBfm/axi4_master_agent_bfm.sv(18).
#    Time: 0 ps  Iteration: 0  Region: /hdlTop/inter/m2s_routing[1] File: ../../src/hdlTop/interrconnect.sv
# ** Warning: (vsim-3839) ../../src/hdlTop/interrconnect.sv(343): Variable '/hdlTop/axi4InterfaceHandle[1]/arsize', driven via a port connection, is multiply driven. See ../../src/hdlTop/axiMasterAgentBfm/axi4_master_agent_bfm.sv(18).
#    Time: 0 ps  Iteration: 0  Region: /hdlTop/inter/m2s_routing[1] File: ../../src/hdlTop/interrconnect.sv
# ** Warning: (vsim-3839) ../../src/hdlTop/interrconnect.sv(342): Variable '/hdlTop/axi4InterfaceHandle[1]/arlen', driven via a port connection, is multiply driven. See ../../src/hdlTop/axiMasterAgentBfm/axi4_master_agent_bfm.sv(18).
#    Time: 0 ps  Iteration: 0  Region: /hdlTop/inter/m2s_routing[1] File: ../../src/hdlTop/interrconnect.sv
# ** Warning: (vsim-3839) ../../src/hdlTop/interrconnect.sv(341): Variable '/hdlTop/axi4InterfaceHandle[1]/araddr', driven via a port connection, is multiply driven. See ../../src/hdlTop/axiMasterAgentBfm/axi4_master_agent_bfm.sv(18).
#    Time: 0 ps  Iteration: 0  Region: /hdlTop/inter/m2s_routing[1] File: ../../src/hdlTop/interrconnect.sv
# ** Warning: (vsim-3839) ../../src/hdlTop/interrconnect.sv(340): Variable '/hdlTop/axi4InterfaceHandle[1]/arid', driven via a port connection, is multiply driven. See ../../src/hdlTop/axiMasterAgentBfm/axi4_master_agent_bfm.sv(18).
#    Time: 0 ps  Iteration: 0  Region: /hdlTop/inter/m2s_routing[1] File: ../../src/hdlTop/interrconnect.sv
# ** Warning: (vsim-3839) ../../src/hdlTop/interrconnect.sv(335): Variable '/hdlTop/axi4InterfaceHandle[1]/bready', driven via a port connection, is multiply driven. See ../../src/hdlTop/axiMasterAgentBfm/axi4_master_agent_bfm.sv(18).
#    Time: 0 ps  Iteration: 0  Region: /hdlTop/inter/m2s_routing[1] File: ../../src/hdlTop/interrconnect.sv
# ** Warning: (vsim-3839) ../../src/hdlTop/interrconnect.sv(334): Variable '/hdlTop/axi4InterfaceHandle[1]/wvalid', driven via a port connection, is multiply driven. See ../../src/hdlTop/axiMasterAgentBfm/axi4_master_agent_bfm.sv(18).
#    Time: 0 ps  Iteration: 0  Region: /hdlTop/inter/m2s_routing[1] File: ../../src/hdlTop/interrconnect.sv
# ** Warning: (vsim-3839) ../../src/hdlTop/interrconnect.sv(333): Variable '/hdlTop/axi4InterfaceHandle[1]/wlast', driven via a port connection, is multiply driven. See ../../src/hdlTop/axiMasterAgentBfm/axi4_master_agent_bfm.sv(18).
#    Time: 0 ps  Iteration: 0  Region: /hdlTop/inter/m2s_routing[1] File: ../../src/hdlTop/interrconnect.sv
# ** Warning: (vsim-3839) ../../src/hdlTop/interrconnect.sv(332): Variable '/hdlTop/axi4InterfaceHandle[1]/wstrb', driven via a port connection, is multiply driven. See ../../src/hdlTop/axiMasterAgentBfm/axi4_master_agent_bfm.sv(18).
#    Time: 0 ps  Iteration: 0  Region: /hdlTop/inter/m2s_routing[1] File: ../../src/hdlTop/interrconnect.sv
# ** Warning: (vsim-3839) ../../src/hdlTop/interrconnect.sv(331): Variable '/hdlTop/axi4InterfaceHandle[1]/wdata', driven via a port connection, is multiply driven. See ../../src/hdlTop/axiMasterAgentBfm/axi4_master_agent_bfm.sv(18).
#    Time: 0 ps  Iteration: 0  Region: /hdlTop/inter/m2s_routing[1] File: ../../src/hdlTop/interrconnect.sv
# ** Warning: (vsim-3839) ../../src/hdlTop/interrconnect.sv(329): Variable '/hdlTop/axi4InterfaceHandle[1]/awvalid', driven via a port connection, is multiply driven. See ../../src/hdlTop/axiMasterAgentBfm/axi4_master_agent_bfm.sv(18).
#    Time: 0 ps  Iteration: 0  Region: /hdlTop/inter/m2s_routing[1] File: ../../src/hdlTop/interrconnect.sv
# ** Warning: (vsim-3839) ../../src/hdlTop/interrconnect.sv(328): Variable '/hdlTop/axi4InterfaceHandle[1]/awqos', driven via a port connection, is multiply driven. See ../../src/hdlTop/axiMasterAgentBfm/axi4_master_agent_bfm.sv(18).
#    Time: 0 ps  Iteration: 0  Region: /hdlTop/inter/m2s_routing[1] File: ../../src/hdlTop/interrconnect.sv
# ** Warning: (vsim-3839) ../../src/hdlTop/interrconnect.sv(327): Variable '/hdlTop/axi4InterfaceHandle[1]/awprot', driven via a port connection, is multiply driven. See ../../src/hdlTop/axiMasterAgentBfm/axi4_master_agent_bfm.sv(18).
#    Time: 0 ps  Iteration: 0  Region: /hdlTop/inter/m2s_routing[1] File: ../../src/hdlTop/interrconnect.sv
# ** Warning: (vsim-3839) ../../src/hdlTop/interrconnect.sv(326): Variable '/hdlTop/axi4InterfaceHandle[1]/awcache', driven via a port connection, is multiply driven. See ../../src/hdlTop/axiMasterAgentBfm/axi4_master_agent_bfm.sv(18).
#    Time: 0 ps  Iteration: 0  Region: /hdlTop/inter/m2s_routing[1] File: ../../src/hdlTop/interrconnect.sv
# ** Warning: (vsim-3839) ../../src/hdlTop/interrconnect.sv(325): Variable '/hdlTop/axi4InterfaceHandle[1]/awlock', driven via a port connection, is multiply driven. See ../../src/hdlTop/axiMasterAgentBfm/axi4_master_agent_bfm.sv(18).
#    Time: 0 ps  Iteration: 0  Region: /hdlTop/inter/m2s_routing[1] File: ../../src/hdlTop/interrconnect.sv
# ** Warning: (vsim-3839) ../../src/hdlTop/interrconnect.sv(324): Variable '/hdlTop/axi4InterfaceHandle[1]/awburst', driven via a port connection, is multiply driven. See ../../src/hdlTop/axiMasterAgentBfm/axi4_master_agent_bfm.sv(18).
#    Time: 0 ps  Iteration: 0  Region: /hdlTop/inter/m2s_routing[1] File: ../../src/hdlTop/interrconnect.sv
# ** Warning: (vsim-3839) ../../src/hdlTop/interrconnect.sv(323): Variable '/hdlTop/axi4InterfaceHandle[1]/awsize', driven via a port connection, is multiply driven. See ../../src/hdlTop/axiMasterAgentBfm/axi4_master_agent_bfm.sv(18).
#    Time: 0 ps  Iteration: 0  Region: /hdlTop/inter/m2s_routing[1] File: ../../src/hdlTop/interrconnect.sv
# ** Warning: (vsim-3839) ../../src/hdlTop/interrconnect.sv(322): Variable '/hdlTop/axi4InterfaceHandle[1]/awlen', driven via a port connection, is multiply driven. See ../../src/hdlTop/axiMasterAgentBfm/axi4_master_agent_bfm.sv(18).
#    Time: 0 ps  Iteration: 0  Region: /hdlTop/inter/m2s_routing[1] File: ../../src/hdlTop/interrconnect.sv
# ** Warning: (vsim-3839) ../../src/hdlTop/interrconnect.sv(321): Variable '/hdlTop/axi4InterfaceHandle[1]/awaddr', driven via a port connection, is multiply driven. See ../../src/hdlTop/axiMasterAgentBfm/axi4_master_agent_bfm.sv(18).
#    Time: 0 ps  Iteration: 0  Region: /hdlTop/inter/m2s_routing[1] File: ../../src/hdlTop/interrconnect.sv
# ** Warning: (vsim-3839) ../../src/hdlTop/interrconnect.sv(320): Variable '/hdlTop/axi4InterfaceHandle[1]/awid', driven via a port connection, is multiply driven. See ../../src/hdlTop/axiMasterAgentBfm/axi4_master_agent_bfm.sv(18).
#    Time: 0 ps  Iteration: 0  Region: /hdlTop/inter/m2s_routing[1] File: ../../src/hdlTop/interrconnect.sv
# ** Warning: (vsim-3839) ../../src/hdlTop/interrconnect.sv(316): Variable '/hdlTop/axi4InterfaceHandle[1]/arvalid', driven via a port connection, is multiply driven. See ../../src/hdlTop/axiMasterAgentBfm/axi4_master_agent_bfm.sv(18).
#    Time: 0 ps  Iteration: 0  Region: /hdlTop/inter/m2s_routing[1] File: ../../src/hdlTop/interrconnect.sv
# ** Warning: (vsim-3839) ../../src/hdlTop/interrconnect.sv(315): Variable '/hdlTop/axi4InterfaceHandle[1]/wvalid', driven via a port connection, is multiply driven. See ../../src/hdlTop/axiMasterAgentBfm/axi4_master_agent_bfm.sv(18).
#    Time: 0 ps  Iteration: 0  Region: /hdlTop/inter/m2s_routing[1] File: ../../src/hdlTop/interrconnect.sv
# ** Warning: (vsim-3839) ../../src/hdlTop/interrconnect.sv(314): Variable '/hdlTop/axi4InterfaceHandle[1]/awvalid', driven via a port connection, is multiply driven. See ../../src/hdlTop/axiMasterAgentBfm/axi4_master_agent_bfm.sv(18).
#    Time: 0 ps  Iteration: 0  Region: /hdlTop/inter/m2s_routing[1] File: ../../src/hdlTop/interrconnect.sv
# ** Warning: (vsim-3839) ../../src/hdlTop/interrconnect.sv(351): Variable '/hdlTop/axi4InterfaceHandle[2]/rready', driven via a port connection, is multiply driven. See ../../src/hdlTop/axiMasterAgentBfm/axi4_master_agent_bfm.sv(18).
#    Time: 0 ps  Iteration: 0  Region: /hdlTop/inter/m2s_routing[2] File: ../../src/hdlTop/interrconnect.sv
# ** Warning: (vsim-3839) ../../src/hdlTop/interrconnect.sv(349): Variable '/hdlTop/axi4InterfaceHandle[2]/arvalid', driven via a port connection, is multiply driven. See ../../src/hdlTop/axiMasterAgentBfm/axi4_master_agent_bfm.sv(18).
#    Time: 0 ps  Iteration: 0  Region: /hdlTop/inter/m2s_routing[2] File: ../../src/hdlTop/interrconnect.sv
# ** Warning: (vsim-3839) ../../src/hdlTop/interrconnect.sv(348): Variable '/hdlTop/axi4InterfaceHandle[2]/arqos', driven via a port connection, is multiply driven. See ../../src/hdlTop/axiMasterAgentBfm/axi4_master_agent_bfm.sv(18).
#    Time: 0 ps  Iteration: 0  Region: /hdlTop/inter/m2s_routing[2] File: ../../src/hdlTop/interrconnect.sv
# ** Warning: (vsim-3839) ../../src/hdlTop/interrconnect.sv(347): Variable '/hdlTop/axi4InterfaceHandle[2]/arprot', driven via a port connection, is multiply driven. See ../../src/hdlTop/axiMasterAgentBfm/axi4_master_agent_bfm.sv(18).
#    Time: 0 ps  Iteration: 0  Region: /hdlTop/inter/m2s_routing[2] File: ../../src/hdlTop/interrconnect.sv
# ** Warning: (vsim-3839) ../../src/hdlTop/interrconnect.sv(346): Variable '/hdlTop/axi4InterfaceHandle[2]/arcache', driven via a port connection, is multiply driven. See ../../src/hdlTop/axiMasterAgentBfm/axi4_master_agent_bfm.sv(18).
#    Time: 0 ps  Iteration: 0  Region: /hdlTop/inter/m2s_routing[2] File: ../../src/hdlTop/interrconnect.sv
# ** Warning: (vsim-3839) ../../src/hdlTop/interrconnect.sv(345): Variable '/hdlTop/axi4InterfaceHandle[2]/arlock', driven via a port connection, is multiply driven. See ../../src/hdlTop/axiMasterAgentBfm/axi4_master_agent_bfm.sv(18).
#    Time: 0 ps  Iteration: 0  Region: /hdlTop/inter/m2s_routing[2] File: ../../src/hdlTop/interrconnect.sv
# ** Warning: (vsim-3839) ../../src/hdlTop/interrconnect.sv(344): Variable '/hdlTop/axi4InterfaceHandle[2]/arburst', driven via a port connection, is multiply driven. See ../../src/hdlTop/axiMasterAgentBfm/axi4_master_agent_bfm.sv(18).
#    Time: 0 ps  Iteration: 0  Region: /hdlTop/inter/m2s_routing[2] File: ../../src/hdlTop/interrconnect.sv
# ** Warning: (vsim-3839) ../../src/hdlTop/interrconnect.sv(343): Variable '/hdlTop/axi4InterfaceHandle[2]/arsize', driven via a port connection, is multiply driven. See ../../src/hdlTop/axiMasterAgentBfm/axi4_master_agent_bfm.sv(18).
#    Time: 0 ps  Iteration: 0  Region: /hdlTop/inter/m2s_routing[2] File: ../../src/hdlTop/interrconnect.sv
# ** Warning: (vsim-3839) ../../src/hdlTop/interrconnect.sv(342): Variable '/hdlTop/axi4InterfaceHandle[2]/arlen', driven via a port connection, is multiply driven. See ../../src/hdlTop/axiMasterAgentBfm/axi4_master_agent_bfm.sv(18).
#    Time: 0 ps  Iteration: 0  Region: /hdlTop/inter/m2s_routing[2] File: ../../src/hdlTop/interrconnect.sv
# ** Warning: (vsim-3839) ../../src/hdlTop/interrconnect.sv(341): Variable '/hdlTop/axi4InterfaceHandle[2]/araddr', driven via a port connection, is multiply driven. See ../../src/hdlTop/axiMasterAgentBfm/axi4_master_agent_bfm.sv(18).
#    Time: 0 ps  Iteration: 0  Region: /hdlTop/inter/m2s_routing[2] File: ../../src/hdlTop/interrconnect.sv
# ** Warning: (vsim-3839) ../../src/hdlTop/interrconnect.sv(340): Variable '/hdlTop/axi4InterfaceHandle[2]/arid', driven via a port connection, is multiply driven. See ../../src/hdlTop/axiMasterAgentBfm/axi4_master_agent_bfm.sv(18).
#    Time: 0 ps  Iteration: 0  Region: /hdlTop/inter/m2s_routing[2] File: ../../src/hdlTop/interrconnect.sv
# ** Warning: (vsim-3839) ../../src/hdlTop/interrconnect.sv(335): Variable '/hdlTop/axi4InterfaceHandle[2]/bready', driven via a port connection, is multiply driven. See ../../src/hdlTop/axiMasterAgentBfm/axi4_master_agent_bfm.sv(18).
#    Time: 0 ps  Iteration: 0  Region: /hdlTop/inter/m2s_routing[2] File: ../../src/hdlTop/interrconnect.sv
# ** Warning: (vsim-3839) ../../src/hdlTop/interrconnect.sv(334): Variable '/hdlTop/axi4InterfaceHandle[2]/wvalid', driven via a port connection, is multiply driven. See ../../src/hdlTop/axiMasterAgentBfm/axi4_master_agent_bfm.sv(18).
#    Time: 0 ps  Iteration: 0  Region: /hdlTop/inter/m2s_routing[2] File: ../../src/hdlTop/interrconnect.sv
# ** Warning: (vsim-3839) ../../src/hdlTop/interrconnect.sv(333): Variable '/hdlTop/axi4InterfaceHandle[2]/wlast', driven via a port connection, is multiply driven. See ../../src/hdlTop/axiMasterAgentBfm/axi4_master_agent_bfm.sv(18).
#    Time: 0 ps  Iteration: 0  Region: /hdlTop/inter/m2s_routing[2] File: ../../src/hdlTop/interrconnect.sv
# ** Warning: (vsim-3839) ../../src/hdlTop/interrconnect.sv(332): Variable '/hdlTop/axi4InterfaceHandle[2]/wstrb', driven via a port connection, is multiply driven. See ../../src/hdlTop/axiMasterAgentBfm/axi4_master_agent_bfm.sv(18).
#    Time: 0 ps  Iteration: 0  Region: /hdlTop/inter/m2s_routing[2] File: ../../src/hdlTop/interrconnect.sv
# ** Warning: (vsim-3839) ../../src/hdlTop/interrconnect.sv(331): Variable '/hdlTop/axi4InterfaceHandle[2]/wdata', driven via a port connection, is multiply driven. See ../../src/hdlTop/axiMasterAgentBfm/axi4_master_agent_bfm.sv(18).
#    Time: 0 ps  Iteration: 0  Region: /hdlTop/inter/m2s_routing[2] File: ../../src/hdlTop/interrconnect.sv
# ** Warning: (vsim-3839) ../../src/hdlTop/interrconnect.sv(329): Variable '/hdlTop/axi4InterfaceHandle[2]/awvalid', driven via a port connection, is multiply driven. See ../../src/hdlTop/axiMasterAgentBfm/axi4_master_agent_bfm.sv(18).
#    Time: 0 ps  Iteration: 0  Region: /hdlTop/inter/m2s_routing[2] File: ../../src/hdlTop/interrconnect.sv
# ** Warning: (vsim-3839) ../../src/hdlTop/interrconnect.sv(328): Variable '/hdlTop/axi4InterfaceHandle[2]/awqos', driven via a port connection, is multiply driven. See ../../src/hdlTop/axiMasterAgentBfm/axi4_master_agent_bfm.sv(18).
#    Time: 0 ps  Iteration: 0  Region: /hdlTop/inter/m2s_routing[2] File: ../../src/hdlTop/interrconnect.sv
# ** Warning: (vsim-3839) ../../src/hdlTop/interrconnect.sv(327): Variable '/hdlTop/axi4InterfaceHandle[2]/awprot', driven via a port connection, is multiply driven. See ../../src/hdlTop/axiMasterAgentBfm/axi4_master_agent_bfm.sv(18).
#    Time: 0 ps  Iteration: 0  Region: /hdlTop/inter/m2s_routing[2] File: ../../src/hdlTop/interrconnect.sv
# ** Warning: (vsim-3839) ../../src/hdlTop/interrconnect.sv(326): Variable '/hdlTop/axi4InterfaceHandle[2]/awcache', driven via a port connection, is multiply driven. See ../../src/hdlTop/axiMasterAgentBfm/axi4_master_agent_bfm.sv(18).
#    Time: 0 ps  Iteration: 0  Region: /hdlTop/inter/m2s_routing[2] File: ../../src/hdlTop/interrconnect.sv
# ** Warning: (vsim-3839) ../../src/hdlTop/interrconnect.sv(325): Variable '/hdlTop/axi4InterfaceHandle[2]/awlock', driven via a port connection, is multiply driven. See ../../src/hdlTop/axiMasterAgentBfm/axi4_master_agent_bfm.sv(18).
#    Time: 0 ps  Iteration: 0  Region: /hdlTop/inter/m2s_routing[2] File: ../../src/hdlTop/interrconnect.sv
# ** Warning: (vsim-3839) ../../src/hdlTop/interrconnect.sv(324): Variable '/hdlTop/axi4InterfaceHandle[2]/awburst', driven via a port connection, is multiply driven. See ../../src/hdlTop/axiMasterAgentBfm/axi4_master_agent_bfm.sv(18).
#    Time: 0 ps  Iteration: 0  Region: /hdlTop/inter/m2s_routing[2] File: ../../src/hdlTop/interrconnect.sv
# ** Warning: (vsim-3839) ../../src/hdlTop/interrconnect.sv(323): Variable '/hdlTop/axi4InterfaceHandle[2]/awsize', driven via a port connection, is multiply driven. See ../../src/hdlTop/axiMasterAgentBfm/axi4_master_agent_bfm.sv(18).
#    Time: 0 ps  Iteration: 0  Region: /hdlTop/inter/m2s_routing[2] File: ../../src/hdlTop/interrconnect.sv
# ** Warning: (vsim-3839) ../../src/hdlTop/interrconnect.sv(322): Variable '/hdlTop/axi4InterfaceHandle[2]/awlen', driven via a port connection, is multiply driven. See ../../src/hdlTop/axiMasterAgentBfm/axi4_master_agent_bfm.sv(18).
#    Time: 0 ps  Iteration: 0  Region: /hdlTop/inter/m2s_routing[2] File: ../../src/hdlTop/interrconnect.sv
# ** Warning: (vsim-3839) ../../src/hdlTop/interrconnect.sv(321): Variable '/hdlTop/axi4InterfaceHandle[2]/awaddr', driven via a port connection, is multiply driven. See ../../src/hdlTop/axiMasterAgentBfm/axi4_master_agent_bfm.sv(18).
#    Time: 0 ps  Iteration: 0  Region: /hdlTop/inter/m2s_routing[2] File: ../../src/hdlTop/interrconnect.sv
# ** Warning: (vsim-3839) ../../src/hdlTop/interrconnect.sv(320): Variable '/hdlTop/axi4InterfaceHandle[2]/awid', driven via a port connection, is multiply driven. See ../../src/hdlTop/axiMasterAgentBfm/axi4_master_agent_bfm.sv(18).
#    Time: 0 ps  Iteration: 0  Region: /hdlTop/inter/m2s_routing[2] File: ../../src/hdlTop/interrconnect.sv
# ** Warning: (vsim-3839) ../../src/hdlTop/interrconnect.sv(316): Variable '/hdlTop/axi4InterfaceHandle[2]/arvalid', driven via a port connection, is multiply driven. See ../../src/hdlTop/axiMasterAgentBfm/axi4_master_agent_bfm.sv(18).
#    Time: 0 ps  Iteration: 0  Region: /hdlTop/inter/m2s_routing[2] File: ../../src/hdlTop/interrconnect.sv
# ** Warning: (vsim-3839) ../../src/hdlTop/interrconnect.sv(315): Variable '/hdlTop/axi4InterfaceHandle[2]/wvalid', driven via a port connection, is multiply driven. See ../../src/hdlTop/axiMasterAgentBfm/axi4_master_agent_bfm.sv(18).
#    Time: 0 ps  Iteration: 0  Region: /hdlTop/inter/m2s_routing[2] File: ../../src/hdlTop/interrconnect.sv
# ** Warning: (vsim-3839) ../../src/hdlTop/interrconnect.sv(314): Variable '/hdlTop/axi4InterfaceHandle[2]/awvalid', driven via a port connection, is multiply driven. See ../../src/hdlTop/axiMasterAgentBfm/axi4_master_agent_bfm.sv(18).
#    Time: 0 ps  Iteration: 0  Region: /hdlTop/inter/m2s_routing[2] File: ../../src/hdlTop/interrconnect.sv
# ** Warning: (vsim-3839) ../../src/hdlTop/interrconnect.sv(351): Variable '/hdlTop/axi4InterfaceHandle[3]/rready', driven via a port connection, is multiply driven. See ../../src/hdlTop/axiMasterAgentBfm/axi4_master_agent_bfm.sv(18).
#    Time: 0 ps  Iteration: 0  Region: /hdlTop/inter/m2s_routing[3] File: ../../src/hdlTop/interrconnect.sv
# ** Warning: (vsim-3839) ../../src/hdlTop/interrconnect.sv(349): Variable '/hdlTop/axi4InterfaceHandle[3]/arvalid', driven via a port connection, is multiply driven. See ../../src/hdlTop/axiMasterAgentBfm/axi4_master_agent_bfm.sv(18).
#    Time: 0 ps  Iteration: 0  Region: /hdlTop/inter/m2s_routing[3] File: ../../src/hdlTop/interrconnect.sv
# ** Warning: (vsim-3839) ../../src/hdlTop/interrconnect.sv(348): Variable '/hdlTop/axi4InterfaceHandle[3]/arqos', driven via a port connection, is multiply driven. See ../../src/hdlTop/axiMasterAgentBfm/axi4_master_agent_bfm.sv(18).
#    Time: 0 ps  Iteration: 0  Region: /hdlTop/inter/m2s_routing[3] File: ../../src/hdlTop/interrconnect.sv
# ** Warning: (vsim-3839) ../../src/hdlTop/interrconnect.sv(347): Variable '/hdlTop/axi4InterfaceHandle[3]/arprot', driven via a port connection, is multiply driven. See ../../src/hdlTop/axiMasterAgentBfm/axi4_master_agent_bfm.sv(18).
#    Time: 0 ps  Iteration: 0  Region: /hdlTop/inter/m2s_routing[3] File: ../../src/hdlTop/interrconnect.sv
# ** Warning: (vsim-3839) ../../src/hdlTop/interrconnect.sv(346): Variable '/hdlTop/axi4InterfaceHandle[3]/arcache', driven via a port connection, is multiply driven. See ../../src/hdlTop/axiMasterAgentBfm/axi4_master_agent_bfm.sv(18).
#    Time: 0 ps  Iteration: 0  Region: /hdlTop/inter/m2s_routing[3] File: ../../src/hdlTop/interrconnect.sv
# ** Warning: (vsim-3839) ../../src/hdlTop/interrconnect.sv(345): Variable '/hdlTop/axi4InterfaceHandle[3]/arlock', driven via a port connection, is multiply driven. See ../../src/hdlTop/axiMasterAgentBfm/axi4_master_agent_bfm.sv(18).
#    Time: 0 ps  Iteration: 0  Region: /hdlTop/inter/m2s_routing[3] File: ../../src/hdlTop/interrconnect.sv
# ** Warning: (vsim-3839) ../../src/hdlTop/interrconnect.sv(344): Variable '/hdlTop/axi4InterfaceHandle[3]/arburst', driven via a port connection, is multiply driven. See ../../src/hdlTop/axiMasterAgentBfm/axi4_master_agent_bfm.sv(18).
#    Time: 0 ps  Iteration: 0  Region: /hdlTop/inter/m2s_routing[3] File: ../../src/hdlTop/interrconnect.sv
# ** Warning: (vsim-3839) ../../src/hdlTop/interrconnect.sv(343): Variable '/hdlTop/axi4InterfaceHandle[3]/arsize', driven via a port connection, is multiply driven. See ../../src/hdlTop/axiMasterAgentBfm/axi4_master_agent_bfm.sv(18).
#    Time: 0 ps  Iteration: 0  Region: /hdlTop/inter/m2s_routing[3] File: ../../src/hdlTop/interrconnect.sv
# ** Warning: (vsim-3839) ../../src/hdlTop/interrconnect.sv(342): Variable '/hdlTop/axi4InterfaceHandle[3]/arlen', driven via a port connection, is multiply driven. See ../../src/hdlTop/axiMasterAgentBfm/axi4_master_agent_bfm.sv(18).
#    Time: 0 ps  Iteration: 0  Region: /hdlTop/inter/m2s_routing[3] File: ../../src/hdlTop/interrconnect.sv
# ** Warning: (vsim-3839) ../../src/hdlTop/interrconnect.sv(341): Variable '/hdlTop/axi4InterfaceHandle[3]/araddr', driven via a port connection, is multiply driven. See ../../src/hdlTop/axiMasterAgentBfm/axi4_master_agent_bfm.sv(18).
#    Time: 0 ps  Iteration: 0  Region: /hdlTop/inter/m2s_routing[3] File: ../../src/hdlTop/interrconnect.sv
# ** Warning: (vsim-3839) ../../src/hdlTop/interrconnect.sv(340): Variable '/hdlTop/axi4InterfaceHandle[3]/arid', driven via a port connection, is multiply driven. See ../../src/hdlTop/axiMasterAgentBfm/axi4_master_agent_bfm.sv(18).
#    Time: 0 ps  Iteration: 0  Region: /hdlTop/inter/m2s_routing[3] File: ../../src/hdlTop/interrconnect.sv
# ** Warning: (vsim-3839) ../../src/hdlTop/interrconnect.sv(335): Variable '/hdlTop/axi4InterfaceHandle[3]/bready', driven via a port connection, is multiply driven. See ../../src/hdlTop/axiMasterAgentBfm/axi4_master_agent_bfm.sv(18).
#    Time: 0 ps  Iteration: 0  Region: /hdlTop/inter/m2s_routing[3] File: ../../src/hdlTop/interrconnect.sv
# ** Warning: (vsim-3839) ../../src/hdlTop/interrconnect.sv(334): Variable '/hdlTop/axi4InterfaceHandle[3]/wvalid', driven via a port connection, is multiply driven. See ../../src/hdlTop/axiMasterAgentBfm/axi4_master_agent_bfm.sv(18).
#    Time: 0 ps  Iteration: 0  Region: /hdlTop/inter/m2s_routing[3] File: ../../src/hdlTop/interrconnect.sv
# ** Warning: (vsim-3839) ../../src/hdlTop/interrconnect.sv(333): Variable '/hdlTop/axi4InterfaceHandle[3]/wlast', driven via a port connection, is multiply driven. See ../../src/hdlTop/axiMasterAgentBfm/axi4_master_agent_bfm.sv(18).
#    Time: 0 ps  Iteration: 0  Region: /hdlTop/inter/m2s_routing[3] File: ../../src/hdlTop/interrconnect.sv
# ** Warning: (vsim-3839) ../../src/hdlTop/interrconnect.sv(332): Variable '/hdlTop/axi4InterfaceHandle[3]/wstrb', driven via a port connection, is multiply driven. See ../../src/hdlTop/axiMasterAgentBfm/axi4_master_agent_bfm.sv(18).
#    Time: 0 ps  Iteration: 0  Region: /hdlTop/inter/m2s_routing[3] File: ../../src/hdlTop/interrconnect.sv
# ** Warning: (vsim-3839) ../../src/hdlTop/interrconnect.sv(331): Variable '/hdlTop/axi4InterfaceHandle[3]/wdata', driven via a port connection, is multiply driven. See ../../src/hdlTop/axiMasterAgentBfm/axi4_master_agent_bfm.sv(18).
#    Time: 0 ps  Iteration: 0  Region: /hdlTop/inter/m2s_routing[3] File: ../../src/hdlTop/interrconnect.sv
# ** Warning: (vsim-3839) ../../src/hdlTop/interrconnect.sv(329): Variable '/hdlTop/axi4InterfaceHandle[3]/awvalid', driven via a port connection, is multiply driven. See ../../src/hdlTop/axiMasterAgentBfm/axi4_master_agent_bfm.sv(18).
#    Time: 0 ps  Iteration: 0  Region: /hdlTop/inter/m2s_routing[3] File: ../../src/hdlTop/interrconnect.sv
# ** Warning: (vsim-3839) ../../src/hdlTop/interrconnect.sv(328): Variable '/hdlTop/axi4InterfaceHandle[3]/awqos', driven via a port connection, is multiply driven. See ../../src/hdlTop/axiMasterAgentBfm/axi4_master_agent_bfm.sv(18).
#    Time: 0 ps  Iteration: 0  Region: /hdlTop/inter/m2s_routing[3] File: ../../src/hdlTop/interrconnect.sv
# ** Warning: (vsim-3839) ../../src/hdlTop/interrconnect.sv(327): Variable '/hdlTop/axi4InterfaceHandle[3]/awprot', driven via a port connection, is multiply driven. See ../../src/hdlTop/axiMasterAgentBfm/axi4_master_agent_bfm.sv(18).
#    Time: 0 ps  Iteration: 0  Region: /hdlTop/inter/m2s_routing[3] File: ../../src/hdlTop/interrconnect.sv
# ** Warning: (vsim-3839) ../../src/hdlTop/interrconnect.sv(326): Variable '/hdlTop/axi4InterfaceHandle[3]/awcache', driven via a port connection, is multiply driven. See ../../src/hdlTop/axiMasterAgentBfm/axi4_master_agent_bfm.sv(18).
#    Time: 0 ps  Iteration: 0  Region: /hdlTop/inter/m2s_routing[3] File: ../../src/hdlTop/interrconnect.sv
# ** Warning: (vsim-3839) ../../src/hdlTop/interrconnect.sv(325): Variable '/hdlTop/axi4InterfaceHandle[3]/awlock', driven via a port connection, is multiply driven. See ../../src/hdlTop/axiMasterAgentBfm/axi4_master_agent_bfm.sv(18).
#    Time: 0 ps  Iteration: 0  Region: /hdlTop/inter/m2s_routing[3] File: ../../src/hdlTop/interrconnect.sv
# ** Warning: (vsim-3839) ../../src/hdlTop/interrconnect.sv(324): Variable '/hdlTop/axi4InterfaceHandle[3]/awburst', driven via a port connection, is multiply driven. See ../../src/hdlTop/axiMasterAgentBfm/axi4_master_agent_bfm.sv(18).
#    Time: 0 ps  Iteration: 0  Region: /hdlTop/inter/m2s_routing[3] File: ../../src/hdlTop/interrconnect.sv
# ** Warning: (vsim-3839) ../../src/hdlTop/interrconnect.sv(323): Variable '/hdlTop/axi4InterfaceHandle[3]/awsize', driven via a port connection, is multiply driven. See ../../src/hdlTop/axiMasterAgentBfm/axi4_master_agent_bfm.sv(18).
#    Time: 0 ps  Iteration: 0  Region: /hdlTop/inter/m2s_routing[3] File: ../../src/hdlTop/interrconnect.sv
# ** Warning: (vsim-3839) ../../src/hdlTop/interrconnect.sv(322): Variable '/hdlTop/axi4InterfaceHandle[3]/awlen', driven via a port connection, is multiply driven. See ../../src/hdlTop/axiMasterAgentBfm/axi4_master_agent_bfm.sv(18).
#    Time: 0 ps  Iteration: 0  Region: /hdlTop/inter/m2s_routing[3] File: ../../src/hdlTop/interrconnect.sv
# ** Warning: (vsim-3839) ../../src/hdlTop/interrconnect.sv(321): Variable '/hdlTop/axi4InterfaceHandle[3]/awaddr', driven via a port connection, is multiply driven. See ../../src/hdlTop/axiMasterAgentBfm/axi4_master_agent_bfm.sv(18).
#    Time: 0 ps  Iteration: 0  Region: /hdlTop/inter/m2s_routing[3] File: ../../src/hdlTop/interrconnect.sv
# ** Warning: (vsim-3839) ../../src/hdlTop/interrconnect.sv(320): Variable '/hdlTop/axi4InterfaceHandle[3]/awid', driven via a port connection, is multiply driven. See ../../src/hdlTop/axiMasterAgentBfm/axi4_master_agent_bfm.sv(18).
#    Time: 0 ps  Iteration: 0  Region: /hdlTop/inter/m2s_routing[3] File: ../../src/hdlTop/interrconnect.sv
# ** Warning: (vsim-3839) ../../src/hdlTop/interrconnect.sv(316): Variable '/hdlTop/axi4InterfaceHandle[3]/arvalid', driven via a port connection, is multiply driven. See ../../src/hdlTop/axiMasterAgentBfm/axi4_master_agent_bfm.sv(18).
#    Time: 0 ps  Iteration: 0  Region: /hdlTop/inter/m2s_routing[3] File: ../../src/hdlTop/interrconnect.sv
# ** Warning: (vsim-3839) ../../src/hdlTop/interrconnect.sv(315): Variable '/hdlTop/axi4InterfaceHandle[3]/wvalid', driven via a port connection, is multiply driven. See ../../src/hdlTop/axiMasterAgentBfm/axi4_master_agent_bfm.sv(18).
#    Time: 0 ps  Iteration: 0  Region: /hdlTop/inter/m2s_routing[3] File: ../../src/hdlTop/interrconnect.sv
# ** Warning: (vsim-3839) ../../src/hdlTop/interrconnect.sv(314): Variable '/hdlTop/axi4InterfaceHandle[3]/awvalid', driven via a port connection, is multiply driven. See ../../src/hdlTop/axiMasterAgentBfm/axi4_master_agent_bfm.sv(18).
#    Time: 0 ps  Iteration: 0  Region: /hdlTop/inter/m2s_routing[3] File: ../../src/hdlTop/interrconnect.sv
# ** Warning: (vsim-3839) ../../src/hdlTop/hdlTop.sv(115): Variable '/hdlTop/triggerInterfaceHandle[0]/trigOutReq', driven via a port connection, is multiply driven. See ../../src/hdlTop/triggerSlaveAgentBfm/triggerSlaveAgentBfm.sv(13).
#    Time: 0 ps  Iteration: 0  Region: /hdlTop/genblk2[0] File: ../../src/hdlTop/hdlTop.sv
# ** Warning: (vsim-3839) ../../src/hdlTop/hdlTop.sv(112): Variable '/hdlTop/triggerInterfaceHandle[0]/trigInAck', driven via a port connection, is multiply driven. See ../../src/hdlTop/triggerSlaveAgentBfm/triggerSlaveAgentBfm.sv(13).
#    Time: 0 ps  Iteration: 0  Region: /hdlTop/genblk2[0] File: ../../src/hdlTop/hdlTop.sv
# ** Warning: (vsim-3839) ../../src/hdlTop/hdlTop.sv(115): Variable '/hdlTop/triggerInterfaceHandle[1]/trigOutReq', driven via a port connection, is multiply driven. See ../../src/hdlTop/triggerSlaveAgentBfm/triggerSlaveAgentBfm.sv(13).
#    Time: 0 ps  Iteration: 0  Region: /hdlTop/genblk2[1] File: ../../src/hdlTop/hdlTop.sv
# ** Warning: (vsim-3839) ../../src/hdlTop/hdlTop.sv(112): Variable '/hdlTop/triggerInterfaceHandle[1]/trigInAck', driven via a port connection, is multiply driven. See ../../src/hdlTop/triggerSlaveAgentBfm/triggerSlaveAgentBfm.sv(13).
#    Time: 0 ps  Iteration: 0  Region: /hdlTop/genblk2[1] File: ../../src/hdlTop/hdlTop.sv
# ** Warning: (vsim-3839) ../../src/hdlTop/hdlTop.sv(115): Variable '/hdlTop/triggerInterfaceHandle[2]/trigOutReq', driven via a port connection, is multiply driven. See ../../src/hdlTop/triggerSlaveAgentBfm/triggerSlaveAgentBfm.sv(13).
#    Time: 0 ps  Iteration: 0  Region: /hdlTop/genblk2[2] File: ../../src/hdlTop/hdlTop.sv
# ** Warning: (vsim-3839) ../../src/hdlTop/hdlTop.sv(112): Variable '/hdlTop/triggerInterfaceHandle[2]/trigInAck', driven via a port connection, is multiply driven. See ../../src/hdlTop/triggerSlaveAgentBfm/triggerSlaveAgentBfm.sv(13).
#    Time: 0 ps  Iteration: 0  Region: /hdlTop/genblk2[2] File: ../../src/hdlTop/hdlTop.sv
# ** Warning: (vsim-3839) ../../src/hdlTop/hdlTop.sv(115): Variable '/hdlTop/triggerInterfaceHandle[3]/trigOutReq', driven via a port connection, is multiply driven. See ../../src/hdlTop/triggerSlaveAgentBfm/triggerSlaveAgentBfm.sv(13).
#    Time: 0 ps  Iteration: 0  Region: /hdlTop/genblk2[3] File: ../../src/hdlTop/hdlTop.sv
# ** Warning: (vsim-3839) ../../src/hdlTop/hdlTop.sv(112): Variable '/hdlTop/triggerInterfaceHandle[3]/trigInAck', driven via a port connection, is multiply driven. See ../../src/hdlTop/triggerSlaveAgentBfm/triggerSlaveAgentBfm.sv(13).
#    Time: 0 ps  Iteration: 0  Region: /hdlTop/genblk2[3] File: ../../src/hdlTop/hdlTop.sv
# Loading /tools/mentor/questasim_10.6c/questasim/uvm-1.1d/linux/uvm_dpi.so
# log -r /*
#  add wave -r /*
#  coverage save -onexit -assert -directive -cvg -codeAll dma1dBlockTransferWithContinueSrcAndDesXsizeEqAndHwTiAndHiTo/dma1dBlockTransferWithContinueSrcAndDesXsizeEqAndHwTiAndHiTo_coverage.ucdb
#  run -all
# ----------------------------------------------------------------
# UVM-1.1d
# (C) 2007-2013 Mentor Graphics Corporation
# (C) 2007-2013 Cadence Design Systems, Inc.
# (C) 2006-2013 Synopsys, Inc.
# (C) 2011-2013 Cypress Semiconductor Corp.
# ----------------------------------------------------------------
# 
#   ***********       IMPORTANT RELEASE NOTES         ************
# 
#   You are using a version of the UVM library that has been compiled
#   with `UVM_NO_DEPRECATED undefined.
#   See http://www.eda.org/svdb/view.php?id=3313 for more details.
# 
#   You are using a version of the UVM library that has been compiled
#   with `UVM_OBJECT_MUST_HAVE_CONSTRUCTOR undefined.
#   See http://www.eda.org/svdb/view.php?id=3770 for more details.
# 
#       (Specify +UVM_NO_RELNOTES to turn off this notice)
# 
# UVM_INFO verilog_src/questa_uvm_pkg-1.2/src/questa_uvm_pkg.sv(215) @ 0: reporter [Questa UVM] QUESTA_UVM-1.2.3
# UVM_INFO verilog_src/questa_uvm_pkg-1.2/src/questa_uvm_pkg.sv(217) @ 0: reporter [Questa UVM]  questa_uvm::init(+struct)
# UVM_INFO @ 0: reporter [RNTST] Running test dma1dBlockTransferWithContinueSrcAndDesXsizeEqAndHwTiAndHiTo...
# UVM_INFO ../../src/hdlTop/axiMasterAgentBfm/axi4_master_driver_bfm.sv(87) @ 0: reporter [AXI4_MASTER_DRIVER_BFM] AXI4_MASTER_DRIVER_BFM
# UVM_INFO ../../src/hdlTop/axiMasterAgentBfm/axi4_master_agent_bfm.sv(170) @ 0: reporter [axi4 master agent bfm] AXI4 MASTER AGENT BFM
# UVM_INFO ../../src/hdlTop/axiSlaveAgentBfM/axi4_slave_driver_bfm.sv(94) @ 0: reporter [axi4 slave driver bfm] AXI4 SLAVE DRIVER BFM
# UVM_INFO ../../src/hdlTop/axiSlaveAgentBfM/axi4_slave_monitor_bfm.sv(82) @ 0: reporter [axi4 slave monitor bfm] AXI4 SLAVE MONITOR BFM
# UVM_INFO ../../src/hdlTop/axiSlaveAgentBfM/axi4_slave_agent_bfm.sv(176) @ 0: reporter [axi4 slave agent bfm] AXI4 SLAVE AGENT BFM
# UVM_INFO ../../src/hdlTop/triggerMasterAgentBfm/triggerMasterAgentBfm.sv(26) @ 0: reporter [triggerMasterAgentBfm] Trigger Master Agent Bfm
# UVM_INFO ../../src/hdlTop/triggerSlaveAgentBfm/triggerSlaveAgentBfm.sv(29) @ 0: reporter [Trigger slave agent bfm] TRIGGER SLAVE AGENT BFM
# UVM_INFO ../../src/hdlTop/axiMasterAgentBfm/axi4_master_driver_bfm.sv(87) @ 0: reporter [AXI4_MASTER_DRIVER_BFM] AXI4_MASTER_DRIVER_BFM
# UVM_INFO ../../src/hdlTop/axiMasterAgentBfm/axi4_master_agent_bfm.sv(170) @ 0: reporter [axi4 master agent bfm] AXI4 MASTER AGENT BFM
# UVM_INFO ../../src/hdlTop/axiSlaveAgentBfM/axi4_slave_driver_bfm.sv(94) @ 0: reporter [axi4 slave driver bfm] AXI4 SLAVE DRIVER BFM
# UVM_INFO ../../src/hdlTop/axiSlaveAgentBfM/axi4_slave_monitor_bfm.sv(82) @ 0: reporter [axi4 slave monitor bfm] AXI4 SLAVE MONITOR BFM
# UVM_INFO ../../src/hdlTop/axiSlaveAgentBfM/axi4_slave_agent_bfm.sv(176) @ 0: reporter [axi4 slave agent bfm] AXI4 SLAVE AGENT BFM
# UVM_INFO ../../src/hdlTop/triggerMasterAgentBfm/triggerMasterAgentBfm.sv(26) @ 0: reporter [triggerMasterAgentBfm] Trigger Master Agent Bfm
# UVM_INFO ../../src/hdlTop/triggerSlaveAgentBfm/triggerSlaveAgentBfm.sv(29) @ 0: reporter [Trigger slave agent bfm] TRIGGER SLAVE AGENT BFM
# UVM_INFO ../../src/hdlTop/axiMasterAgentBfm/axi4_master_driver_bfm.sv(87) @ 0: reporter [AXI4_MASTER_DRIVER_BFM] AXI4_MASTER_DRIVER_BFM
# UVM_INFO ../../src/hdlTop/axiMasterAgentBfm/axi4_master_agent_bfm.sv(170) @ 0: reporter [axi4 master agent bfm] AXI4 MASTER AGENT BFM
# UVM_INFO ../../src/hdlTop/axiSlaveAgentBfM/axi4_slave_driver_bfm.sv(94) @ 0: reporter [axi4 slave driver bfm] AXI4 SLAVE DRIVER BFM
# UVM_INFO ../../src/hdlTop/axiSlaveAgentBfM/axi4_slave_monitor_bfm.sv(82) @ 0: reporter [axi4 slave monitor bfm] AXI4 SLAVE MONITOR BFM
# UVM_INFO ../../src/hdlTop/axiSlaveAgentBfM/axi4_slave_agent_bfm.sv(176) @ 0: reporter [axi4 slave agent bfm] AXI4 SLAVE AGENT BFM
# UVM_INFO ../../src/hdlTop/triggerMasterAgentBfm/triggerMasterAgentBfm.sv(26) @ 0: reporter [triggerMasterAgentBfm] Trigger Master Agent Bfm
# UVM_INFO ../../src/hdlTop/triggerSlaveAgentBfm/triggerSlaveAgentBfm.sv(29) @ 0: reporter [Trigger slave agent bfm] TRIGGER SLAVE AGENT BFM
# UVM_INFO ../../src/hdlTop/axiMasterAgentBfm/axi4_master_driver_bfm.sv(87) @ 0: reporter [AXI4_MASTER_DRIVER_BFM] AXI4_MASTER_DRIVER_BFM
# UVM_INFO ../../src/hdlTop/axiMasterAgentBfm/axi4_master_agent_bfm.sv(170) @ 0: reporter [axi4 master agent bfm] AXI4 MASTER AGENT BFM
# UVM_INFO ../../src/hdlTop/axiSlaveAgentBfM/axi4_slave_driver_bfm.sv(94) @ 0: reporter [axi4 slave driver bfm] AXI4 SLAVE DRIVER BFM
# UVM_INFO ../../src/hdlTop/axiSlaveAgentBfM/axi4_slave_monitor_bfm.sv(82) @ 0: reporter [axi4 slave monitor bfm] AXI4 SLAVE MONITOR BFM
# UVM_INFO ../../src/hdlTop/axiSlaveAgentBfM/axi4_slave_agent_bfm.sv(176) @ 0: reporter [axi4 slave agent bfm] AXI4 SLAVE AGENT BFM
# UVM_INFO ../../src/hdlTop/triggerMasterAgentBfm/triggerMasterAgentBfm.sv(26) @ 0: reporter [triggerMasterAgentBfm] Trigger Master Agent Bfm
# UVM_INFO ../../src/hdlTop/triggerSlaveAgentBfm/triggerSlaveAgentBfm.sv(29) @ 0: reporter [Trigger slave agent bfm] TRIGGER SLAVE AGENT BFM
# UVM_INFO ../../src/hdlTop/apbMasterAgentBfm/apb_master_agent_bfm.sv(17) @ 0: reporter [apb master agent bfm] APB MASTER AGENT BFM
# UVM_INFO ../../src/hdlTop/apbMasterAgentBfm/apb_master_driver_bfm.sv(56) @ 0: reporter [APB_MASTER_DRIVER_BFM] APB_MASTER_DRIVER_BFM
# UVM_INFO ../../src/hdlTop/apbMasterAgentBfm/apb_master_monitor_bfm.sv(48) @ 0: reporter [APB_MASTER_MONITOR_BFM] APB MASTER MONITOR BFM
# UVM_INFO ../../src/hdlTop/interruptSlaveAgentBfm/interruptSlaveAgentBfm.sv(10) @ 0: reporter [Interrupt Slave AGent] Interrupt Slave AGent
# UVM_INFO ../../src/hdlTop/interruptMasterAgentBfm/interruptMasterAgentBfm.sv(10) @ 0: reporter [Interrupt Master AGent] Interrupt Master AGent
# SEQR CONNECTED FOR PERIF           0
# SEQR CONNECTED FOR PERIF           1
# SEQR CONNECTED FOR PERIF           2
# SEQR CONNECTED FOR PERIF           3
# UVM_INFO @ 0: reporter [UVMTOP] UVM testbench topology:
# ----------------------------------------------------------------------------------------------------------------------------------------------
# Name                                                                Type                                                          Size  Value 
# ----------------------------------------------------------------------------------------------------------------------------------------------
# uvm_test_top                                                        dma1dBlockTransferWithContinueSrcAndDesXsizeEqAndHwTiAndHiTo  -     @489  
#   topEnvHandle                                                      topEnv                                                        -     @914  
#     configUnitEnvHandle                                             configUnitEnv                                                 -     @1518 
#       apbMasterAgentHandle                                          apb_master_agent                                              -     @1567 
#         apb_master_cov_h                                            apb_master_coverage                                           -     @1855 
#           analysis_imp                                              uvm_analysis_imp                                              -     @1862 
#         apb_master_drv_proxy_h                                      apb_master_driver_proxy                                       -     @1708 
#           rsp_port                                                  uvm_analysis_port                                             -     @1723 
#           seq_item_port                                             uvm_seq_item_pull_port                                        -     @1715 
#         apb_master_mon_proxy_h                                      apb_master_monitor_proxy                                      -     @1840 
#           apb_master_analysis_port                                  uvm_analysis_port                                             -     @1847 
#         apb_master_seqr_h                                           apb_master_sequencer                                          -     @1731 
#           rsp_export                                                uvm_analysis_export                                           -     @1738 
#           seq_item_export                                           uvm_seq_item_pull_imp                                         -     @1832 
#           arbitration_queue                                         array                                                         0     -     
#           lock_queue                                                array                                                         0     -     
#           num_last_reqs                                             integral                                                      32    'd1   
#           num_last_rsps                                             integral                                                      32    'd1   
#       apbPathAnalysisPort                                           uvm_analysis_port                                             -     @1589 
#       configUnitEnvVirtualSequencerHandle                           configUnitEnvVirtualSequencer                                 -     @1597 
#         rsp_export                                                  uvm_analysis_export                                           -     @1604 
#         seq_item_export                                             uvm_seq_item_pull_imp                                         -     @1698 
#         arbitration_queue                                           array                                                         0     -     
#         lock_queue                                                  array                                                         0     -     
#         num_last_reqs                                               integral                                                      32    'd1   
#         num_last_rsps                                               integral                                                      32    'd1   
#       interruptPathAnalysisPort                                     uvm_analysis_port                                             -     @1581 
#       interruptSlaveAgentHandle                                     interruptSlaveAgent                                           -     @1574 
#         interruptSlaveDriverProxyHandle                             interruptSlaveDriverProxy                                     -     @1885 
#           rsp_port                                                  uvm_analysis_port                                             -     @1900 
#           seq_item_port                                             uvm_seq_item_pull_port                                        -     @1892 
#         interruptSlaveMonitorProxyHandle                            interruptSlaveMonitorProxy                                    -     @2017 
#           interruptSlaveMonitorProxyAnalysisPort                    uvm_analysis_port                                             -     @2034 
#         interruptSlaveSequencerHandle                               interruptSlaveSequencer                                       -     @1908 
#           rsp_export                                                uvm_analysis_export                                           -     @1915 
#           seq_item_export                                           uvm_seq_item_pull_imp                                         -     @2009 
#           arbitration_queue                                         array                                                         0     -     
#           lock_queue                                                array                                                         0     -     
#           num_last_reqs                                             integral                                                      32    'd1   
#           num_last_rsps                                             integral                                                      32    'd1   
#         slave agent port                                            uvm_analysis_port                                             -     @2024 
#     peripheralEnvHandle[0]                                          peripheralEnv                                                 -     @1039 
#       axi4MasterAgentHandle                                         axi4_master_agent                                             -     @2064 
#         axi4_master_cov_h                                           axi4_master_coverage                                          -     @2391 
#           analysis_imp                                              uvm_analysis_imp                                              -     @2398 
#         axi4_master_mon_proxy_h                                     axi4_master_monitor_proxy                                     -     @2203 
#           axi4_master_read_address_analysis_port                    uvm_analysis_port                                             -     @2210 
#           axi4_master_read_data_analysis_port                       uvm_analysis_port                                             -     @2218 
#           axi4_master_read_fifo_h                                   uvm_tlm_analysis_fifo #(T)                                    -     @2344 
#             analysis_export                                         uvm_analysis_imp                                              -     @2383 
#             get_ap                                                  uvm_analysis_port                                             -     @2375 
#             get_peek_export                                         uvm_get_peek_imp                                              -     @2359 
#             put_ap                                                  uvm_analysis_port                                             -     @2367 
#             put_export                                              uvm_put_imp                                                   -     @2351 
#           axi4_master_write_address_analysis_port                   uvm_analysis_port                                             -     @2226 
#           axi4_master_write_address_fifo_h                          uvm_tlm_analysis_fifo #(T)                                    -     @2250 
#             analysis_export                                         uvm_analysis_imp                                              -     @2289 
#             get_ap                                                  uvm_analysis_port                                             -     @2281 
#             get_peek_export                                         uvm_get_peek_imp                                              -     @2265 
#             put_ap                                                  uvm_analysis_port                                             -     @2273 
#             put_export                                              uvm_put_imp                                                   -     @2257 
#           axi4_master_write_data_analysis_port                      uvm_analysis_port                                             -     @2234 
#           axi4_master_write_data_fifo_h                             uvm_tlm_analysis_fifo #(T)                                    -     @2297 
#             analysis_export                                         uvm_analysis_imp                                              -     @2336 
#             get_ap                                                  uvm_analysis_port                                             -     @2328 
#             get_peek_export                                         uvm_get_peek_imp                                              -     @2312 
#             put_ap                                                  uvm_analysis_port                                             -     @2320 
#             put_export                                              uvm_put_imp                                                   -     @2304 
#           axi4_master_write_response_analysis_port                  uvm_analysis_port                                             -     @2242 
#       axi4MasterPathReadAddressAnalysisPort                         uvm_analysis_port                                             -     @1110 
#       axi4MasterPathReadDataAnalysisPort                            uvm_analysis_port                                             -     @1118 
#       axi4MasterPathWriteAddressAnalysisPort                        uvm_analysis_port                                             -     @1086 
#       axi4MasterPathWriteDataAnalysisPort                           uvm_analysis_port                                             -     @1094 
#       axi4MasterPathWriteResponseAnalysisPort                       uvm_analysis_port                                             -     @1102 
#       axi4SlaveAgentHandle                                          axi4_slave_agent                                              -     @2071 
#         axi4_slave_cov_h                                            axi4_slave_coverage                                           -     @3103 
#           analysis_imp                                              uvm_analysis_imp                                              -     @3110 
#         axi4_slave_drv_proxy_h                                      axi4_slave_driver_proxy                                       -     @2408 
#           axi4_slave_read_addr_fifo_h                               uvm_tlm_fifo #(T)                                             -     @2619 
#             get_ap                                                  uvm_analysis_port                                             -     @2650 
#             get_peek_export                                         uvm_get_peek_imp                                              -     @2634 
#             put_ap                                                  uvm_analysis_port                                             -     @2642 
#             put_export                                              uvm_put_imp                                                   -     @2626 
#           axi4_slave_read_data_in_fifo_h                            uvm_tlm_fifo #(T)                                             -     @2658 
#             get_ap                                                  uvm_analysis_port                                             -     @2689 
#             get_peek_export                                         uvm_get_peek_imp                                              -     @2673 
#             put_ap                                                  uvm_analysis_port                                             -     @2681 
#             put_export                                              uvm_put_imp                                                   -     @2665 
#           axi4_slave_write_addr_fifo_h                              uvm_tlm_fifo #(T)                                             -     @2463 
#             get_ap                                                  uvm_analysis_port                                             -     @2494 
#             get_peek_export                                         uvm_get_peek_imp                                              -     @2478 
#             put_ap                                                  uvm_analysis_port                                             -     @2486 
#             put_export                                              uvm_put_imp                                                   -     @2470 
#           axi4_slave_write_data_in_fifo_h                           uvm_tlm_fifo #(T)                                             -     @2502 
#             get_ap                                                  uvm_analysis_port                                             -     @2533 
#             get_peek_export                                         uvm_get_peek_imp                                              -     @2517 
#             put_ap                                                  uvm_analysis_port                                             -     @2525 
#             put_export                                              uvm_put_imp                                                   -     @2509 
#           axi4_slave_write_data_out_fifo_h                          uvm_tlm_fifo #(T)                                             -     @2580 
#             get_ap                                                  uvm_analysis_port                                             -     @2611 
#             get_peek_export                                         uvm_get_peek_imp                                              -     @2595 
#             put_ap                                                  uvm_analysis_port                                             -     @2603 
#             put_export                                              uvm_put_imp                                                   -     @2587 
#           axi4_slave_write_response_fifo_h                          uvm_tlm_fifo #(T)                                             -     @2541 
#             get_ap                                                  uvm_analysis_port                                             -     @2572 
#             get_peek_export                                         uvm_get_peek_imp                                              -     @2556 
#             put_ap                                                  uvm_analysis_port                                             -     @2564 
#             put_export                                              uvm_put_imp                                                   -     @2548 
#           axi_read_rsp_port                                         uvm_analysis_port                                             -     @2455 
#           axi_read_seq_item_port                                    uvm_seq_item_pull_port                                        -     @2439 
#           axi_write_rsp_port                                        uvm_analysis_port                                             -     @2447 
#           axi_write_seq_item_port                                   uvm_seq_item_pull_port                                        -     @2431 
#           rsp_port                                                  uvm_analysis_port                                             -     @2423 
#           seq_item_port                                             uvm_seq_item_pull_port                                        -     @2415 
#         axi4_slave_mon_proxy_h                                      axi4_slave_monitor_proxy                                      -     @2915 
#           axi4_slave_read_address_analysis_port                     uvm_analysis_port                                             -     @2922 
#           axi4_slave_read_data_analysis_port                        uvm_analysis_port                                             -     @2930 
#           axi4_slave_read_fifo_h                                    uvm_tlm_analysis_fifo #(T)                                    -     @3056 
#             analysis_export                                         uvm_analysis_imp                                              -     @3095 
#             get_ap                                                  uvm_analysis_port                                             -     @3087 
#             get_peek_export                                         uvm_get_peek_imp                                              -     @3071 
#             put_ap                                                  uvm_analysis_port                                             -     @3079 
#             put_export                                              uvm_put_imp                                                   -     @3063 
#           axi4_slave_write_address_analysis_port                    uvm_analysis_port                                             -     @2938 
#           axi4_slave_write_address_fifo_h                           uvm_tlm_analysis_fifo #(T)                                    -     @2962 
#             analysis_export                                         uvm_analysis_imp                                              -     @3001 
#             get_ap                                                  uvm_analysis_port                                             -     @2993 
#             get_peek_export                                         uvm_get_peek_imp                                              -     @2977 
#             put_ap                                                  uvm_analysis_port                                             -     @2985 
#             put_export                                              uvm_put_imp                                                   -     @2969 
#           axi4_slave_write_data_analysis_port                       uvm_analysis_port                                             -     @2946 
#           axi4_slave_write_data_fifo_h                              uvm_tlm_analysis_fifo #(T)                                    -     @3009 
#             analysis_export                                         uvm_analysis_imp                                              -     @3048 
#             get_ap                                                  uvm_analysis_port                                             -     @3040 
#             get_peek_export                                         uvm_get_peek_imp                                              -     @3024 
#             put_ap                                                  uvm_analysis_port                                             -     @3032 
#             put_export                                              uvm_put_imp                                                   -     @3016 
#           axi4_slave_write_response_analysis_port                   uvm_analysis_port                                             -     @2954 
#         axi4_slave_read_seqr_h                                      axi4_slave_read_sequencer                                     -     @2806 
#           rsp_export                                                uvm_analysis_export                                           -     @2813 
#           seq_item_export                                           uvm_seq_item_pull_imp                                         -     @2907 
#           arbitration_queue                                         array                                                         0     -     
#           lock_queue                                                array                                                         0     -     
#           num_last_reqs                                             integral                                                      32    'd1   
#           num_last_rsps                                             integral                                                      32    'd1   
#         axi4_slave_write_seqr_h                                     axi4_slave_write_sequencer                                    -     @2697 
#           rsp_export                                                uvm_analysis_export                                           -     @2704 
#           seq_item_export                                           uvm_seq_item_pull_imp                                         -     @2798 
#           arbitration_queue                                         array                                                         0     -     
#           lock_queue                                                array                                                         0     -     
#           num_last_reqs                                             integral                                                      32    'd1   
#           num_last_rsps                                             integral                                                      32    'd1   
#       axi4SlavePathReadAddressAnalysisPort                          uvm_analysis_port                                             -     @1070 
#       axi4SlavePathReadDataAnalysisPort                             uvm_analysis_port                                             -     @1078 
#       axi4SlavePathWriteAddressAnalysisPort                         uvm_analysis_port                                             -     @1046 
#       axi4SlavePathWriteDataAnalysisPort                            uvm_analysis_port                                             -     @1054 
#       axi4SlavePathWriteResponseAnalysisPort                        uvm_analysis_port                                             -     @1062 
#       peripheralEnvVirtualSequencerHandle                           peripheralEnvVirtualSequencer                                 -     @2092 
#         rsp_export                                                  uvm_analysis_export                                           -     @2099 
#         seq_item_export                                             uvm_seq_item_pull_imp                                         -     @2193 
#         arbitration_queue                                           array                                                         0     -     
#         lock_queue                                                  array                                                         0     -     
#         num_last_reqs                                               integral                                                      32    'd1   
#         num_last_rsps                                               integral                                                      32    'd1   
#       triggerMasterAgentHandle                                      triggerMasterAgent                                            -     @2085 
#         triggerMasterDriverProxyHandle                              triggerMasterDriverProxy                                      -     @3135 
#           rsp_port                                                  uvm_analysis_port                                             -     @3150 
#           seq_item_port                                             uvm_seq_item_pull_port                                        -     @3142 
#         triggerMasterMonitorProxyHandle                             triggerMasterMonitorProxy                                     -     @3267 
#           triggerMasterMonitorAnalysisPort                          uvm_analysis_port                                             -     @3274 
#           triggerOutMasterMonitorAnalysisPort                       uvm_analysis_port                                             -     @3282 
#         triggerMasterSequencerHandle                                triggerMasterSequencer                                        -     @3158 
#           rsp_export                                                uvm_analysis_export                                           -     @3165 
#           seq_item_export                                           uvm_seq_item_pull_imp                                         -     @3259 
#           arbitration_queue                                         array                                                         0     -     
#           lock_queue                                                array                                                         0     -     
#           num_last_reqs                                             integral                                                      32    'd1   
#           num_last_rsps                                             integral                                                      32    'd1   
#       triggerMasterPathAnalysisPort                                 uvm_analysis_port                                             -     @1126 
#       triggerOutMasterPathAnalysisPort                              uvm_analysis_port                                             -     @1142 
#       triggerOutSlavePathAnalysisPort                               uvm_analysis_port                                             -     @1150 
#       triggerSlaveAgentHandle                                       triggerSlaveAgent                                             -     @2078 
#         triggerSlaveMonitorProxyHandle                              triggerSlaveMonitorProxy                                      -     @3297 
#           triggerOutSlaveMonitorAnalysisPort                        uvm_analysis_port                                             -     @3312 
#           triggerSlaveMonitorAnalysisPort                           uvm_analysis_port                                             -     @3304 
#       triggerSlavePathAnalysisPort                                  uvm_analysis_port                                             -     @1134 
#     peripheralEnvHandle[1]                                          peripheralEnv                                                 -     @1159 
#       axi4MasterAgentHandle                                         axi4_master_agent                                             -     @3333 
#         axi4_master_cov_h                                           axi4_master_coverage                                          -     @3660 
#           analysis_imp                                              uvm_analysis_imp                                              -     @3667 
#         axi4_master_mon_proxy_h                                     axi4_master_monitor_proxy                                     -     @3472 
#           axi4_master_read_address_analysis_port                    uvm_analysis_port                                             -     @3479 
#           axi4_master_read_data_analysis_port                       uvm_analysis_port                                             -     @3487 
#           axi4_master_read_fifo_h                                   uvm_tlm_analysis_fifo #(T)                                    -     @3613 
#             analysis_export                                         uvm_analysis_imp                                              -     @3652 
#             get_ap                                                  uvm_analysis_port                                             -     @3644 
#             get_peek_export                                         uvm_get_peek_imp                                              -     @3628 
#             put_ap                                                  uvm_analysis_port                                             -     @3636 
#             put_export                                              uvm_put_imp                                                   -     @3620 
#           axi4_master_write_address_analysis_port                   uvm_analysis_port                                             -     @3495 
#           axi4_master_write_address_fifo_h                          uvm_tlm_analysis_fifo #(T)                                    -     @3519 
#             analysis_export                                         uvm_analysis_imp                                              -     @3558 
#             get_ap                                                  uvm_analysis_port                                             -     @3550 
#             get_peek_export                                         uvm_get_peek_imp                                              -     @3534 
#             put_ap                                                  uvm_analysis_port                                             -     @3542 
#             put_export                                              uvm_put_imp                                                   -     @3526 
#           axi4_master_write_data_analysis_port                      uvm_analysis_port                                             -     @3503 
#           axi4_master_write_data_fifo_h                             uvm_tlm_analysis_fifo #(T)                                    -     @3566 
#             analysis_export                                         uvm_analysis_imp                                              -     @3605 
