# vsim -vopt work.HvlTop work.hdlTop -voptargs="+acc=npr" -assertdebug "+UVM_TESTNAME=dma2dBlockTransferWithXFillSrcGreaterDesXsizeYFillSrcGreaterDesYsizeAndHwTiAndHiTo" "+UVM_VERBOSITY=UVM_HIGH" "+define+dmaBaseTest" -l dma2dBlockTransferWithXFillSrcGreaterDesXsizeYFillSrcGreaterDesYsizeAndHwTiAndHiTo/dma2dBlockTransferWithXFillSrcGreaterDesXsizeYFillSrcGreaterDesYsizeAndHwTiAndHiTo.log -sva -coverage -c -do "log -r /*; add wave -r /*; coverage save -onexit -assert -directive -cvg -codeAll dma2dBlockTransferWithXFillSrcGreaterDesXsizeYFillSrcGreaterDesYsizeAndHwTiAndHiTo/dma2dBlockTransferWithXFillSrcGreaterDesXsizeYFillSrcGreaterDesYsizeAndHwTiAndHiTo_coverage.ucdb; run -all; exit" -wlf dma2dBlockTransferWithXFillSrcGreaterDesXsizeYFillSrcGreaterDesYsizeAndHwTiAndHiTo/waveform.wlf 
# Start time: 00:06:24 on Jul 04,2026
# ** Note: (vsim-3812) Design is being optimized...
# ** Note: (vopt-143) Recognized 2 FSMs in module "data_fsm(fast)".
# ** Note: (vopt-143) Recognized 4 FSMs in module "biu(fast)".
# ** Note: (vopt-143) Recognized 1 FSM in module "cmd_fsm(fast)".
# ** Note: (vopt-143) Recognized 1 FSM in module "apb_slave(fast)".
# ** Warning: ../../src/hdlTop/hdlTop.sv(40): (vopt-2685) [TFMPC] - Too few port connections for 'u_dma'.  Expected 51, found 50.
# ** Warning: ../../src/hdlTop/hdlTop.sv(40): (vopt-2718) [TFMPC] - Missing connection for port 'boot_addr'.
# ** Warning: ../../src/hvlTop/dmaTest/sequences/triggerMasterSequences/triggerMasterSequence.sv(19): (vopt-2239) Treating stand-alone use of presumed external function as an implicit VOID cast.
# ** Warning: ../../src/hvlTop/dmaTest/dmaBaseTest.sv(59): (vopt-2240) Treating stand-alone use of function 'randomize' as an implicit VOID cast.
# ** Warning: ../../src/hvlTop/dmaTest/dma1dBlockTransferWithContinueSrcAndDesXsizeEqAndSwTiAndSiTo.sv(30): (vopt-2240) Treating stand-alone use of function 'randomize' as an implicit VOID cast.
# ** Warning: ../../src/hvlTop/dmaTest/dma1dBlockTransferWithContinueSrcAndDesXsizeEqAndSwTiAndSiTo.sv(194): (vopt-2875) Task "dump_config_to_file" is being called in function "build_phase".
# ** Warning: ../../src/hvlTop/dmaTest/dma1dSingleTransferWithSrcAndDesXsizeEq0AndHwTiAndHiTo.sv(32): (vopt-2240) Treating stand-alone use of function 'randomize' as an implicit VOID cast.
# ** Warning: ../../src/hvlTop/dmaTest/dma1dSingleTransferWithSrcAndDesXsizeEq0AndHwTiAndHiTo.sv(129): (vopt-2875) Task "dump_config_to_file" is being called in function "build_phase".
# ** Warning: ../../src/hvlTop/dmaTest/dma1dSingleTransferWithSrcXsizeEq0AndDesXsizeGreaterThan0AndHwTiAndHiTo.sv(32): (vopt-2240) Treating stand-alone use of function 'randomize' as an implicit VOID cast.
# ** Warning: ../../src/hvlTop/dmaTest/dma1dSingleTransferWithSrcXsizeEq0AndDesXsizeGreaterThan0AndHwTiAndHiTo.sv(130): (vopt-2875) Task "dump_config_to_file" is being called in function "build_phase".
# ** Warning: ../../src/hvlTop/dmaTest/dma1dSingleTransferWithContinueSrcXsizeGreaterThan0AndDesXsizeEq0AndHwTiAndHiTo.sv(27): (vopt-2240) Treating stand-alone use of function 'randomize' as an implicit VOID cast.
# ** Warning: ../../src/hvlTop/dmaTest/dma1dSingleTransferWithContinueSrcXsizeGreaterThan0AndDesXsizeEq0AndHwTiAndHiTo.sv(106): (vopt-2875) Task "dump_config_to_file" is being called in function "build_phase".
# ** Warning: ../../src/hvlTop/dmaTest/dma1dSingleTransferWithFillSrcXsizeGreaterThan0AndDesXsizeEq0AndHwTiAndHiTo.sv(32): (vopt-2240) Treating stand-alone use of function 'randomize' as an implicit VOID cast.
# ** Warning: ../../src/hvlTop/dmaTest/dma1dSingleTransferWithFillSrcXsizeGreaterThan0AndDesXsizeEq0AndHwTiAndHiTo.sv(129): (vopt-2875) Task "dump_config_to_file" is being called in function "build_phase".
# ** Warning: ../../src/hvlTop/dmaTest/dma1dSingleTransferWithWrapSrcXsizeGreaterThan0AndDesXsizeEq0AndHwTiAndHiTo.sv(32): (vopt-2240) Treating stand-alone use of function 'randomize' as an implicit VOID cast.
# ** Warning: ../../src/hvlTop/dmaTest/dma1dSingleTransferWithWrapSrcXsizeGreaterThan0AndDesXsizeEq0AndHwTiAndHiTo.sv(111): (vopt-2875) Task "dump_config_to_file" is being called in function "build_phase".
# ** Warning: ../../src/hvlTop/dmaTest/dma1dSingleTransferWithContinueSrcAndDesXsizeEqAndHwTiAndHiTo.sv(25): (vopt-2240) Treating stand-alone use of function 'randomize' as an implicit VOID cast.
# ** Warning: ../../src/hvlTop/dmaTest/dma1dSingleTransferWithContinueSrcAndDesXsizeEqAndHwTiAndHiTo.sv(106): (vopt-2875) Task "dump_config_to_file" is being called in function "build_phase".
# ** Warning: ../../src/hvlTop/dmaTest/dma1dSingleTransferWithFillSrcAndDesXsizeEqAndHwTiAndHiTo.sv(27): (vopt-2240) Treating stand-alone use of function 'randomize' as an implicit VOID cast.
# ** Warning: ../../src/hvlTop/dmaTest/dma1dSingleTransferWithFillSrcAndDesXsizeEqAndHwTiAndHiTo.sv(106): (vopt-2875) Task "dump_config_to_file" is being called in function "build_phase".
# ** Warning: ../../src/hvlTop/dmaTest/dma1dSingleTransferWithWrapSrcAndDesXsizeEqAndHwTiAndHiTo.sv(32): (vopt-2240) Treating stand-alone use of function 'randomize' as an implicit VOID cast.
# ** Warning: ../../src/hvlTop/dmaTest/dma1dSingleTransferWithWrapSrcAndDesXsizeEqAndHwTiAndHiTo.sv(129): (vopt-2875) Task "dump_config_to_file" is being called in function "build_phase".
# ** Warning: ../../src/hvlTop/dmaTest/dma1dSingleTransferWithWrapSrcGreaterThanDesXsizeAndHwTiAndHiTo.sv(32): (vopt-2240) Treating stand-alone use of function 'randomize' as an implicit VOID cast.
# ** Warning: ../../src/hvlTop/dmaTest/dma1dSingleTransferWithWrapSrcGreaterThanDesXsizeAndHwTiAndHiTo.sv(129): (vopt-2875) Task "dump_config_to_file" is being called in function "build_phase".
# ** Warning: ../../src/hvlTop/dmaTest/dma1dSingleTransferWithFillSrcGreaterThanDesXsizeAndHwTiAndHiTo.sv(30): (vopt-2240) Treating stand-alone use of function 'randomize' as an implicit VOID cast.
# ** Warning: ../../src/hvlTop/dmaTest/dma1dSingleTransferWithFillSrcGreaterThanDesXsizeAndHwTiAndHiTo.sv(109): (vopt-2875) Task "dump_config_to_file" is being called in function "build_phase".
# ** Warning: ../../src/hvlTop/dmaTest/dma1dSingleTransferWithContinueSrcGreaterThanDesXsizeAndHwTiAndHiTo.sv(26): (vopt-2240) Treating stand-alone use of function 'randomize' as an implicit VOID cast.
# ** Warning: ../../src/hvlTop/dmaTest/dma1dSingleTransferWithContinueSrcGreaterThanDesXsizeAndHwTiAndHiTo.sv(105): (vopt-2875) Task "dump_config_to_file" is being called in function "build_phase".
# ** Warning: ../../src/hvlTop/dmaTest/dma1dSingleTransferWithWrapSrcSmallerThanDesXsizeAndHwTiAndHiTo.sv(35): (vopt-2240) Treating stand-alone use of function 'randomize' as an implicit VOID cast.
# ** Warning: ../../src/hvlTop/dmaTest/dma1dSingleTransferWithWrapSrcSmallerThanDesXsizeAndHwTiAndHiTo.sv(90): (vopt-2875) Task "dump_config_to_file" is being called in function "build_phase".
# ** Warning: ../../src/hvlTop/dmaTest/dma1dSingleTransferWithFillSrcSmallerThanDesXsizeAndHwTiAndHiTo.sv(30): (vopt-2240) Treating stand-alone use of function 'randomize' as an implicit VOID cast.
# ** Warning: ../../src/hvlTop/dmaTest/dma1dSingleTransferWithFillSrcSmallerThanDesXsizeAndHwTiAndHiTo.sv(110): (vopt-2875) Task "dump_config_to_file" is being called in function "build_phase".
# ** Warning: ../../src/hvlTop/dmaTest/dma1dSingleTransferWithContinueSrcSmallerThanDesXsizeAndHwTiAndHiTo.sv(27): (vopt-2240) Treating stand-alone use of function 'randomize' as an implicit VOID cast.
# ** Warning: ../../src/hvlTop/dmaTest/dma1dSingleTransferWithContinueSrcSmallerThanDesXsizeAndHwTiAndHiTo.sv(106): (vopt-2875) Task "dump_config_to_file" is being called in function "build_phase".
# ** Warning: ../../src/hvlTop/dmaTest/dma1dBlockTransferWithSrcAndDesXsizeEq0AndHwTiAndHiTo.sv(26): (vopt-2240) Treating stand-alone use of function 'randomize' as an implicit VOID cast.
# ** Warning: ../../src/hvlTop/dmaTest/dma1dBlockTransferWithSrcAndDesXsizeEq0AndHwTiAndHiTo.sv(105): (vopt-2875) Task "dump_config_to_file" is being called in function "build_phase".
# ** Warning: ../../src/hvlTop/dmaTest/dma1dBlockTransferWithSrcXsizeEq0AndDesXsizeGreaterThan0AndHwTiAndHiTo.sv(26): (vopt-2240) Treating stand-alone use of function 'randomize' as an implicit VOID cast.
# ** Warning: ../../src/hvlTop/dmaTest/dma1dBlockTransferWithSrcXsizeEq0AndDesXsizeGreaterThan0AndHwTiAndHiTo.sv(105): (vopt-2875) Task "dump_config_to_file" is being called in function "build_phase".
# ** Warning: ../../src/hvlTop/dmaTest/dma1dBlockTransferWithContinueSrcXsizeGreaterThan0AndDesXsizeEq0AndHwTiAndHiTo.sv(27): (vopt-2240) Treating stand-alone use of function 'randomize' as an implicit VOID cast.
# ** Warning: ../../src/hvlTop/dmaTest/dma1dBlockTransferWithContinueSrcXsizeGreaterThan0AndDesXsizeEq0AndHwTiAndHiTo.sv(105): (vopt-2875) Task "dump_config_to_file" is being called in function "build_phase".
# ** Warning: ../../src/hvlTop/dmaTest/dma1dBlockTransferWithFillSrcXsizeGreaterThan0AndDesXsizeEq0AndHwTiAndHiTo.sv(26): (vopt-2240) Treating stand-alone use of function 'randomize' as an implicit VOID cast.
# ** Warning: ../../src/hvlTop/dmaTest/dma1dBlockTransferWithFillSrcXsizeGreaterThan0AndDesXsizeEq0AndHwTiAndHiTo.sv(104): (vopt-2875) Task "dump_config_to_file" is being called in function "build_phase".
# ** Warning: ../../src/hvlTop/dmaTest/dma1dBlockTransferWithWrapSrcXsizeGreaterThan0AndDesXsizeEq0AndHwTiAndHiTo.sv(27): (vopt-2240) Treating stand-alone use of function 'randomize' as an implicit VOID cast.
# ** Warning: ../../src/hvlTop/dmaTest/dma1dBlockTransferWithWrapSrcXsizeGreaterThan0AndDesXsizeEq0AndHwTiAndHiTo.sv(106): (vopt-2875) Task "dump_config_to_file" is being called in function "build_phase".
# ** Warning: ../../src/hvlTop/dmaTest/dma1dBlockTransferWithContinueSrcAndDesXsizeEqAndHwTiAndHiTo.sv(31): (vopt-2240) Treating stand-alone use of function 'randomize' as an implicit VOID cast.
# ** Warning: ../../src/hvlTop/dmaTest/dma1dBlockTransferWithContinueSrcAndDesXsizeEqAndHwTiAndHiTo.sv(302): (vopt-2875) Task "dump_config_to_file" is being called in function "build_phase".
# ** Warning: ../../src/hvlTop/dmaTest/dma1dBlockTransferWithFillSrcAndDesXsizeEqAndHwTiAndHiTo.sv(29): (vopt-2240) Treating stand-alone use of function 'randomize' as an implicit VOID cast.
# ** Warning: ../../src/hvlTop/dmaTest/dma1dBlockTransferWithFillSrcAndDesXsizeEqAndHwTiAndHiTo.sv(109): (vopt-2875) Task "dump_config_to_file" is being called in function "build_phase".
# ** Warning: ../../src/hvlTop/dmaTest/dma1dBlockTransferWithWrapSrcAndDesXsizeEqAndHwTiAndHiTo.sv(26): (vopt-2240) Treating stand-alone use of function 'randomize' as an implicit VOID cast.
# ** Warning: ../../src/hvlTop/dmaTest/dma1dBlockTransferWithWrapSrcAndDesXsizeEqAndHwTiAndHiTo.sv(106): (vopt-2875) Task "dump_config_to_file" is being called in function "build_phase".
# ** Warning: ../../src/hvlTop/dmaTest/dma1dBlockTransferWithWrapSrcGreaterThanDesXsizeAndHwTiAndHiTo.sv(26): (vopt-2240) Treating stand-alone use of function 'randomize' as an implicit VOID cast.
# ** Warning: ../../src/hvlTop/dmaTest/dma1dBlockTransferWithWrapSrcGreaterThanDesXsizeAndHwTiAndHiTo.sv(106): (vopt-2875) Task "dump_config_to_file" is being called in function "build_phase".
# ** Warning: ../../src/hvlTop/dmaTest/dma1dBlockTransferWithFillSrcGreaterThanDesXsizeAndHwTiAndHiTo.sv(26): (vopt-2240) Treating stand-alone use of function 'randomize' as an implicit VOID cast.
# ** Warning: ../../src/hvlTop/dmaTest/dma1dBlockTransferWithFillSrcGreaterThanDesXsizeAndHwTiAndHiTo.sv(106): (vopt-2875) Task "dump_config_to_file" is being called in function "build_phase".
# ** Warning: ../../src/hvlTop/dmaTest/dma1dBlockTransferWithContinueSrcGreaterThanDesXsizeAndHwTiAndHiTo.sv(29): (vopt-2240) Treating stand-alone use of function 'randomize' as an implicit VOID cast.
# ** Warning: ../../src/hvlTop/dmaTest/dma1dBlockTransferWithContinueSrcGreaterThanDesXsizeAndHwTiAndHiTo.sv(191): (vopt-2875) Task "dump_config_to_file" is being called in function "build_phase".
# ** Warning: ../../src/hvlTop/dmaTest/dma1dBlockTransferWithWrapSrcSmallerThanDesXsizeAndHwTiAndHiTo.sv(27): (vopt-2240) Treating stand-alone use of function 'randomize' as an implicit VOID cast.
# ** Warning: ../../src/hvlTop/dmaTest/dma1dBlockTransferWithWrapSrcSmallerThanDesXsizeAndHwTiAndHiTo.sv(106): (vopt-2875) Task "dump_config_to_file" is being called in function "build_phase".
# ** Warning: ../../src/hvlTop/dmaTest/dma1dBlockTransferWithFillSrcSmallerThanDesXsizeAndHwTiAndHiTo.sv(26): (vopt-2240) Treating stand-alone use of function 'randomize' as an implicit VOID cast.
# ** Warning: ../../src/hvlTop/dmaTest/dma1dBlockTransferWithFillSrcSmallerThanDesXsizeAndHwTiAndHiTo.sv(106): (vopt-2875) Task "dump_config_to_file" is being called in function "build_phase".
# ** Warning: ../../src/hvlTop/dmaTest/dma1dBlockTransferWithContinueSrcSmallerThanDesXsizeAndHwTiAndHiTo.sv(27): (vopt-2240) Treating stand-alone use of function 'randomize' as an implicit VOID cast.
# ** Warning: ../../src/hvlTop/dmaTest/dma1dBlockTransferWithContinueSrcSmallerThanDesXsizeAndHwTiAndHiTo.sv(107): (vopt-2875) Task "dump_config_to_file" is being called in function "build_phase".
# ** Warning: ../../src/hvlTop/dmaTest/2d/dma2dBlockTransferWithXContinueSrcGreaterDesXsizeYContinueSrcGreaterDesYsizeAndHwTiAndHiTo.sv(31): (vopt-2240) Treating stand-alone use of function 'randomize' as an implicit VOID cast.
# ** Warning: ../../src/hvlTop/dmaTest/2d/dma2dBlockTransferWithXContinueSrcGreaterDesXsizeYContinueSrcGreaterDesYsizeAndHwTiAndHiTo.sv(166): (vopt-2875) Task "dump_config_to_file" is being called in function "build_phase".
# ** Warning: ../../src/hvlTop/dmaTest/2d/dma2dBlockTransferWithXContinueSrcGreaterDesXsizeYContinueSrcSmallerDesYsizeAndHwTiAndHiTo.sv(31): (vopt-2240) Treating stand-alone use of function 'randomize' as an implicit VOID cast.
# ** Warning: ../../src/hvlTop/dmaTest/2d/dma2dBlockTransferWithXContinueSrcGreaterDesXsizeYContinueSrcSmallerDesYsizeAndHwTiAndHiTo.sv(166): (vopt-2875) Task "dump_config_to_file" is being called in function "build_phase".
# ** Warning: ../../src/hvlTop/dmaTest/2d/dma2dBlockTransferWithXContinueSrcGreaterDesXsizeYContinueSrcEqualDesYsizeAndHwTiAndHiTo.sv(31): (vopt-2240) Treating stand-alone use of function 'randomize' as an implicit VOID cast.
# ** Warning: ../../src/hvlTop/dmaTest/2d/dma2dBlockTransferWithXContinueSrcGreaterDesXsizeYContinueSrcEqualDesYsizeAndHwTiAndHiTo.sv(166): (vopt-2875) Task "dump_config_to_file" is being called in function "build_phase".
# ** Warning: ../../src/hvlTop/dmaTest/2d/dma2dBlockTransferWithXContinueSrcGreaterDesXsizeYWrapSrcGreaterDesYsizeAndHwTiAndHiTo.sv(31): (vopt-2240) Treating stand-alone use of function 'randomize' as an implicit VOID cast.
# ** Warning: ../../src/hvlTop/dmaTest/2d/dma2dBlockTransferWithXContinueSrcGreaterDesXsizeYWrapSrcGreaterDesYsizeAndHwTiAndHiTo.sv(166): (vopt-2875) Task "dump_config_to_file" is being called in function "build_phase".
# ** Warning: ../../src/hvlTop/dmaTest/2d/dma2dBlockTransferWithXContinueSrcGreaterDesXsizeYWrapSrcSmallerDesYsizeAndHwTiAndHiTo.sv(31): (vopt-2240) Treating stand-alone use of function 'randomize' as an implicit VOID cast.
# ** Warning: ../../src/hvlTop/dmaTest/2d/dma2dBlockTransferWithXContinueSrcGreaterDesXsizeYWrapSrcSmallerDesYsizeAndHwTiAndHiTo.sv(166): (vopt-2875) Task "dump_config_to_file" is being called in function "build_phase".
# ** Warning: ../../src/hvlTop/dmaTest/2d/dma2dBlockTransferWithXContinueSrcGreaterDesXsizeYWrapSrcEqualDesYsizeAndHwTiAndHiTo.sv(31): (vopt-2240) Treating stand-alone use of function 'randomize' as an implicit VOID cast.
# ** Warning: ../../src/hvlTop/dmaTest/2d/dma2dBlockTransferWithXContinueSrcGreaterDesXsizeYWrapSrcEqualDesYsizeAndHwTiAndHiTo.sv(166): (vopt-2875) Task "dump_config_to_file" is being called in function "build_phase".
# ** Warning: ../../src/hvlTop/dmaTest/2d/dma2dBlockTransferWithXContinueSrcGreaterDesXsizeYFillSrcGreaterDesYsizeAndHwTiAndHiTo.sv(31): (vopt-2240) Treating stand-alone use of function 'randomize' as an implicit VOID cast.
# ** Warning: ../../src/hvlTop/dmaTest/2d/dma2dBlockTransferWithXContinueSrcGreaterDesXsizeYFillSrcGreaterDesYsizeAndHwTiAndHiTo.sv(166): (vopt-2875) Task "dump_config_to_file" is being called in function "build_phase".
# ** Warning: ../../src/hvlTop/dmaTest/2d/dma2dBlockTransferWithXContinueSrcGreaterDesXsizeYFillSrcSmallerDesYsizeAndHwTiAndHiTo.sv(31): (vopt-2240) Treating stand-alone use of function 'randomize' as an implicit VOID cast.
# ** Warning: ../../src/hvlTop/dmaTest/2d/dma2dBlockTransferWithXContinueSrcGreaterDesXsizeYFillSrcSmallerDesYsizeAndHwTiAndHiTo.sv(166): (vopt-2875) Task "dump_config_to_file" is being called in function "build_phase".
# ** Warning: ../../src/hvlTop/dmaTest/2d/dma2dBlockTransferWithXContinueSrcGreaterDesXsizeYFillSrcEqualDesYsizeAndHwTiAndHiTo.sv(31): (vopt-2240) Treating stand-alone use of function 'randomize' as an implicit VOID cast.
# ** Warning: ../../src/hvlTop/dmaTest/2d/dma2dBlockTransferWithXContinueSrcGreaterDesXsizeYFillSrcEqualDesYsizeAndHwTiAndHiTo.sv(166): (vopt-2875) Task "dump_config_to_file" is being called in function "build_phase".
# ** Warning: ../../src/hvlTop/dmaTest/2d/dma2dBlockTransferWithXContinueSrcSmallerDesXsizeYContinueSrcGreaterDesYsizeAndHwTiAndHiTo.sv(31): (vopt-2240) Treating stand-alone use of function 'randomize' as an implicit VOID cast.
# ** Warning: ../../src/hvlTop/dmaTest/2d/dma2dBlockTransferWithXContinueSrcSmallerDesXsizeYContinueSrcGreaterDesYsizeAndHwTiAndHiTo.sv(166): (vopt-2875) Task "dump_config_to_file" is being called in function "build_phase".
# ** Warning: ../../src/hvlTop/dmaTest/2d/dma2dBlockTransferWithXContinueSrcSmallerDesXsizeYContinueSrcSmallerDesYsizeAndHwTiAndHiTo.sv(31): (vopt-2240) Treating stand-alone use of function 'randomize' as an implicit VOID cast.
# ** Warning: ../../src/hvlTop/dmaTest/2d/dma2dBlockTransferWithXContinueSrcSmallerDesXsizeYContinueSrcSmallerDesYsizeAndHwTiAndHiTo.sv(166): (vopt-2875) Task "dump_config_to_file" is being called in function "build_phase".
# ** Warning: ../../src/hvlTop/dmaTest/2d/dma2dBlockTransferWithXContinueSrcSmallerDesXsizeYContinueSrcEqualDesYsizeAndHwTiAndHiTo.sv(31): (vopt-2240) Treating stand-alone use of function 'randomize' as an implicit VOID cast.
# ** Warning: ../../src/hvlTop/dmaTest/2d/dma2dBlockTransferWithXContinueSrcSmallerDesXsizeYContinueSrcEqualDesYsizeAndHwTiAndHiTo.sv(166): (vopt-2875) Task "dump_config_to_file" is being called in function "build_phase".
# ** Warning: ../../src/hvlTop/dmaTest/2d/dma2dBlockTransferWithXContinueSrcSmallerDesXsizeYWrapSrcGreaterDesYsizeAndHwTiAndHiTo.sv(31): (vopt-2240) Treating stand-alone use of function 'randomize' as an implicit VOID cast.
# ** Warning: ../../src/hvlTop/dmaTest/2d/dma2dBlockTransferWithXContinueSrcSmallerDesXsizeYWrapSrcGreaterDesYsizeAndHwTiAndHiTo.sv(166): (vopt-2875) Task "dump_config_to_file" is being called in function "build_phase".
# ** Warning: ../../src/hvlTop/dmaTest/2d/dma2dBlockTransferWithXContinueSrcSmallerDesXsizeYWrapSrcSmallerDesYsizeAndHwTiAndHiTo.sv(31): (vopt-2240) Treating stand-alone use of function 'randomize' as an implicit VOID cast.
# ** Warning: ../../src/hvlTop/dmaTest/2d/dma2dBlockTransferWithXContinueSrcSmallerDesXsizeYWrapSrcSmallerDesYsizeAndHwTiAndHiTo.sv(166): (vopt-2875) Task "dump_config_to_file" is being called in function "build_phase".
# ** Warning: ../../src/hvlTop/dmaTest/2d/dma2dBlockTransferWithXContinueSrcSmallerDesXsizeYWrapSrcEqualDesYsizeAndHwTiAndHiTo.sv(31): (vopt-2240) Treating stand-alone use of function 'randomize' as an implicit VOID cast.
# ** Warning: ../../src/hvlTop/dmaTest/2d/dma2dBlockTransferWithXContinueSrcSmallerDesXsizeYWrapSrcEqualDesYsizeAndHwTiAndHiTo.sv(166): (vopt-2875) Task "dump_config_to_file" is being called in function "build_phase".
# ** Warning: ../../src/hvlTop/dmaTest/2d/dma2dBlockTransferWithXContinueSrcSmallerDesXsizeYFillSrcGreaterDesYsizeAndHwTiAndHiTo.sv(31): (vopt-2240) Treating stand-alone use of function 'randomize' as an implicit VOID cast.
# ** Warning: ../../src/hvlTop/dmaTest/2d/dma2dBlockTransferWithXContinueSrcSmallerDesXsizeYFillSrcGreaterDesYsizeAndHwTiAndHiTo.sv(166): (vopt-2875) Task "dump_config_to_file" is being called in function "build_phase".
# ** Warning: ../../src/hvlTop/dmaTest/2d/dma2dBlockTransferWithXContinueSrcSmallerDesXsizeYFillSrcSmallerDesYsizeAndHwTiAndHiTo.sv(31): (vopt-2240) Treating stand-alone use of function 'randomize' as an implicit VOID cast.
# ** Warning: ../../src/hvlTop/dmaTest/2d/dma2dBlockTransferWithXContinueSrcSmallerDesXsizeYFillSrcSmallerDesYsizeAndHwTiAndHiTo.sv(166): (vopt-2875) Task "dump_config_to_file" is being called in function "build_phase".
# ** Warning: ../../src/hvlTop/dmaTest/2d/dma2dBlockTransferWithXContinueSrcSmallerDesXsizeYFillSrcEqualDesYsizeAndHwTiAndHiTo.sv(31): (vopt-2240) Treating stand-alone use of function 'randomize' as an implicit VOID cast.
# ** Warning: ../../src/hvlTop/dmaTest/2d/dma2dBlockTransferWithXContinueSrcSmallerDesXsizeYFillSrcEqualDesYsizeAndHwTiAndHiTo.sv(166): (vopt-2875) Task "dump_config_to_file" is being called in function "build_phase".
# ** Warning: ../../src/hvlTop/dmaTest/2d/dma2dBlockTransferWithXContinueSrcEqualDesXsizeYContinueSrcGreaterDesYsizeAndHwTiAndHiTo.sv(31): (vopt-2240) Treating stand-alone use of function 'randomize' as an implicit VOID cast.
# ** Warning: ../../src/hvlTop/dmaTest/2d/dma2dBlockTransferWithXContinueSrcEqualDesXsizeYContinueSrcGreaterDesYsizeAndHwTiAndHiTo.sv(166): (vopt-2875) Task "dump_config_to_file" is being called in function "build_phase".
# ** Warning: ../../src/hvlTop/dmaTest/2d/dma2dBlockTransferWithXContinueSrcEqualDesXsizeYContinueSrcSmallerDesYsizeAndHwTiAndHiTo.sv(31): (vopt-2240) Treating stand-alone use of function 'randomize' as an implicit VOID cast.
# ** Warning: ../../src/hvlTop/dmaTest/2d/dma2dBlockTransferWithXContinueSrcEqualDesXsizeYContinueSrcSmallerDesYsizeAndHwTiAndHiTo.sv(166): (vopt-2875) Task "dump_config_to_file" is being called in function "build_phase".
# ** Warning: ../../src/hvlTop/dmaTest/2d/dma2dBlockTransferWithXContinueSrcEqualDesXsizeYContinueSrcEqualDesYsizeAndHwTiAndHiTo.sv(31): (vopt-2240) Treating stand-alone use of function 'randomize' as an implicit VOID cast.
# ** Warning: ../../src/hvlTop/dmaTest/2d/dma2dBlockTransferWithXContinueSrcEqualDesXsizeYContinueSrcEqualDesYsizeAndHwTiAndHiTo.sv(166): (vopt-2875) Task "dump_config_to_file" is being called in function "build_phase".
# ** Warning: ../../src/hvlTop/dmaTest/2d/dma2dBlockTransferWithXContinueSrcEqualDesXsizeYWrapSrcGreaterDesYsizeAndHwTiAndHiTo.sv(31): (vopt-2240) Treating stand-alone use of function 'randomize' as an implicit VOID cast.
# ** Warning: ../../src/hvlTop/dmaTest/2d/dma2dBlockTransferWithXContinueSrcEqualDesXsizeYWrapSrcGreaterDesYsizeAndHwTiAndHiTo.sv(166): (vopt-2875) Task "dump_config_to_file" is being called in function "build_phase".
# ** Warning: ../../src/hvlTop/dmaTest/2d/dma2dBlockTransferWithXContinueSrcEqualDesXsizeYWrapSrcSmallerDesYsizeAndHwTiAndHiTo.sv(31): (vopt-2240) Treating stand-alone use of function 'randomize' as an implicit VOID cast.
# ** Warning: ../../src/hvlTop/dmaTest/2d/dma2dBlockTransferWithXContinueSrcEqualDesXsizeYWrapSrcSmallerDesYsizeAndHwTiAndHiTo.sv(166): (vopt-2875) Task "dump_config_to_file" is being called in function "build_phase".
# ** Warning: ../../src/hvlTop/dmaTest/2d/dma2dBlockTransferWithXContinueSrcEqualDesXsizeYWrapSrcEqualDesYsizeAndHwTiAndHiTo.sv(31): (vopt-2240) Treating stand-alone use of function 'randomize' as an implicit VOID cast.
# ** Warning: ../../src/hvlTop/dmaTest/2d/dma2dBlockTransferWithXContinueSrcEqualDesXsizeYWrapSrcEqualDesYsizeAndHwTiAndHiTo.sv(166): (vopt-2875) Task "dump_config_to_file" is being called in function "build_phase".
# ** Warning: ../../src/hvlTop/dmaTest/2d/dma2dBlockTransferWithXContinueSrcEqualDesXsizeYFillSrcGreaterDesYsizeAndHwTiAndHiTo.sv(31): (vopt-2240) Treating stand-alone use of function 'randomize' as an implicit VOID cast.
# ** Warning: ../../src/hvlTop/dmaTest/2d/dma2dBlockTransferWithXContinueSrcEqualDesXsizeYFillSrcGreaterDesYsizeAndHwTiAndHiTo.sv(166): (vopt-2875) Task "dump_config_to_file" is being called in function "build_phase".
# ** Warning: ../../src/hvlTop/dmaTest/2d/dma2dBlockTransferWithXContinueSrcEqualDesXsizeYFillSrcSmallerDesYsizeAndHwTiAndHiTo.sv(31): (vopt-2240) Treating stand-alone use of function 'randomize' as an implicit VOID cast.
# ** Warning: ../../src/hvlTop/dmaTest/2d/dma2dBlockTransferWithXContinueSrcEqualDesXsizeYFillSrcSmallerDesYsizeAndHwTiAndHiTo.sv(166): (vopt-2875) Task "dump_config_to_file" is being called in function "build_phase".
# ** Warning: ../../src/hvlTop/dmaTest/2d/dma2dBlockTransferWithXContinueSrcEqualDesXsizeYFillSrcEqualDesYsizeAndHwTiAndHiTo.sv(31): (vopt-2240) Treating stand-alone use of function 'randomize' as an implicit VOID cast.
# ** Warning: ../../src/hvlTop/dmaTest/2d/dma2dBlockTransferWithXContinueSrcEqualDesXsizeYFillSrcEqualDesYsizeAndHwTiAndHiTo.sv(166): (vopt-2875) Task "dump_config_to_file" is being called in function "build_phase".
# ** Warning: ../../src/hvlTop/dmaTest/2d/dma2dBlockTransferWithXWrapSrcGreaterDesXsizeYContinueSrcGreaterDesYsizeAndHwTiAndHiTo.sv(31): (vopt-2240) Treating stand-alone use of function 'randomize' as an implicit VOID cast.
# ** Warning: ../../src/hvlTop/dmaTest/2d/dma2dBlockTransferWithXWrapSrcGreaterDesXsizeYContinueSrcGreaterDesYsizeAndHwTiAndHiTo.sv(166): (vopt-2875) Task "dump_config_to_file" is being called in function "build_phase".
# ** Warning: ../../src/hvlTop/dmaTest/2d/dma2dBlockTransferWithXWrapSrcGreaterDesXsizeYContinueSrcSmallerDesYsizeAndHwTiAndHiTo.sv(31): (vopt-2240) Treating stand-alone use of function 'randomize' as an implicit VOID cast.
# ** Warning: ../../src/hvlTop/dmaTest/2d/dma2dBlockTransferWithXWrapSrcGreaterDesXsizeYContinueSrcSmallerDesYsizeAndHwTiAndHiTo.sv(166): (vopt-2875) Task "dump_config_to_file" is being called in function "build_phase".
# ** Warning: ../../src/hvlTop/dmaTest/2d/dma2dBlockTransferWithXWrapSrcGreaterDesXsizeYContinueSrcEqualDesYsizeAndHwTiAndHiTo.sv(31): (vopt-2240) Treating stand-alone use of function 'randomize' as an implicit VOID cast.
# ** Warning: ../../src/hvlTop/dmaTest/2d/dma2dBlockTransferWithXWrapSrcGreaterDesXsizeYContinueSrcEqualDesYsizeAndHwTiAndHiTo.sv(166): (vopt-2875) Task "dump_config_to_file" is being called in function "build_phase".
# ** Warning: ../../src/hvlTop/dmaTest/2d/dma2dBlockTransferWithXWrapSrcGreaterDesXsizeYWrapSrcGreaterDesYsizeAndHwTiAndHiTo.sv(31): (vopt-2240) Treating stand-alone use of function 'randomize' as an implicit VOID cast.
# ** Warning: ../../src/hvlTop/dmaTest/2d/dma2dBlockTransferWithXWrapSrcGreaterDesXsizeYWrapSrcGreaterDesYsizeAndHwTiAndHiTo.sv(166): (vopt-2875) Task "dump_config_to_file" is being called in function "build_phase".
# ** Warning: ../../src/hvlTop/dmaTest/2d/dma2dBlockTransferWithXWrapSrcGreaterDesXsizeYWrapSrcSmallerDesYsizeAndHwTiAndHiTo.sv(31): (vopt-2240) Treating stand-alone use of function 'randomize' as an implicit VOID cast.
# ** Warning: ../../src/hvlTop/dmaTest/2d/dma2dBlockTransferWithXWrapSrcGreaterDesXsizeYWrapSrcSmallerDesYsizeAndHwTiAndHiTo.sv(166): (vopt-2875) Task "dump_config_to_file" is being called in function "build_phase".
# ** Warning: ../../src/hvlTop/dmaTest/2d/dma2dBlockTransferWithXWrapSrcGreaterDesXsizeYWrapSrcEqualDesYsizeAndHwTiAndHiTo.sv(31): (vopt-2240) Treating stand-alone use of function 'randomize' as an implicit VOID cast.
# ** Warning: ../../src/hvlTop/dmaTest/2d/dma2dBlockTransferWithXWrapSrcGreaterDesXsizeYWrapSrcEqualDesYsizeAndHwTiAndHiTo.sv(166): (vopt-2875) Task "dump_config_to_file" is being called in function "build_phase".
# ** Warning: ../../src/hvlTop/dmaTest/2d/dma2dBlockTransferWithXWrapSrcGreaterDesXsizeYFillSrcGreaterDesYsizeAndHwTiAndHiTo.sv(31): (vopt-2240) Treating stand-alone use of function 'randomize' as an implicit VOID cast.
# ** Warning: ../../src/hvlTop/dmaTest/2d/dma2dBlockTransferWithXWrapSrcGreaterDesXsizeYFillSrcGreaterDesYsizeAndHwTiAndHiTo.sv(166): (vopt-2875) Task "dump_config_to_file" is being called in function "build_phase".
# ** Warning: ../../src/hvlTop/dmaTest/2d/dma2dBlockTransferWithXWrapSrcGreaterDesXsizeYFillSrcSmallerDesYsizeAndHwTiAndHiTo.sv(31): (vopt-2240) Treating stand-alone use of function 'randomize' as an implicit VOID cast.
# ** Warning: ../../src/hvlTop/dmaTest/2d/dma2dBlockTransferWithXWrapSrcGreaterDesXsizeYFillSrcSmallerDesYsizeAndHwTiAndHiTo.sv(166): (vopt-2875) Task "dump_config_to_file" is being called in function "build_phase".
# ** Warning: ../../src/hvlTop/dmaTest/2d/dma2dBlockTransferWithXWrapSrcGreaterDesXsizeYFillSrcEqualDesYsizeAndHwTiAndHiTo.sv(31): (vopt-2240) Treating stand-alone use of function 'randomize' as an implicit VOID cast.
# ** Warning: ../../src/hvlTop/dmaTest/2d/dma2dBlockTransferWithXWrapSrcGreaterDesXsizeYFillSrcEqualDesYsizeAndHwTiAndHiTo.sv(166): (vopt-2875) Task "dump_config_to_file" is being called in function "build_phase".
# ** Warning: ../../src/hvlTop/dmaTest/2d/dma2dBlockTransferWithXWrapSrcSmallerDesXsizeYContinueSrcGreaterDesYsizeAndHwTiAndHiTo.sv(31): (vopt-2240) Treating stand-alone use of function 'randomize' as an implicit VOID cast.
# ** Warning: ../../src/hvlTop/dmaTest/2d/dma2dBlockTransferWithXWrapSrcSmallerDesXsizeYContinueSrcGreaterDesYsizeAndHwTiAndHiTo.sv(166): (vopt-2875) Task "dump_config_to_file" is being called in function "build_phase".
# ** Warning: ../../src/hvlTop/dmaTest/2d/dma2dBlockTransferWithXWrapSrcSmallerDesXsizeYContinueSrcSmallerDesYsizeAndHwTiAndHiTo.sv(31): (vopt-2240) Treating stand-alone use of function 'randomize' as an implicit VOID cast.
# ** Warning: ../../src/hvlTop/dmaTest/2d/dma2dBlockTransferWithXWrapSrcSmallerDesXsizeYContinueSrcSmallerDesYsizeAndHwTiAndHiTo.sv(166): (vopt-2875) Task "dump_config_to_file" is being called in function "build_phase".
# ** Warning: ../../src/hvlTop/dmaTest/2d/dma2dBlockTransferWithXWrapSrcSmallerDesXsizeYContinueSrcEqualDesYsizeAndHwTiAndHiTo.sv(31): (vopt-2240) Treating stand-alone use of function 'randomize' as an implicit VOID cast.
# ** Warning: ../../src/hvlTop/dmaTest/2d/dma2dBlockTransferWithXWrapSrcSmallerDesXsizeYContinueSrcEqualDesYsizeAndHwTiAndHiTo.sv(166): (vopt-2875) Task "dump_config_to_file" is being called in function "build_phase".
# ** Warning: ../../src/hvlTop/dmaTest/2d/dma2dBlockTransferWithXWrapSrcSmallerDesXsizeYWrapSrcGreaterDesYsizeAndHwTiAndHiTo.sv(31): (vopt-2240) Treating stand-alone use of function 'randomize' as an implicit VOID cast.
# ** Warning: ../../src/hvlTop/dmaTest/2d/dma2dBlockTransferWithXWrapSrcSmallerDesXsizeYWrapSrcGreaterDesYsizeAndHwTiAndHiTo.sv(166): (vopt-2875) Task "dump_config_to_file" is being called in function "build_phase".
# ** Warning: ../../src/hvlTop/dmaTest/2d/dma2dBlockTransferWithXWrapSrcSmallerDesXsizeYWrapSrcSmallerDesYsizeAndHwTiAndHiTo.sv(31): (vopt-2240) Treating stand-alone use of function 'randomize' as an implicit VOID cast.
# ** Warning: ../../src/hvlTop/dmaTest/2d/dma2dBlockTransferWithXWrapSrcSmallerDesXsizeYWrapSrcSmallerDesYsizeAndHwTiAndHiTo.sv(166): (vopt-2875) Task "dump_config_to_file" is being called in function "build_phase".
# ** Warning: ../../src/hvlTop/dmaTest/2d/dma2dBlockTransferWithXWrapSrcSmallerDesXsizeYWrapSrcEqualDesYsizeAndHwTiAndHiTo.sv(31): (vopt-2240) Treating stand-alone use of function 'randomize' as an implicit VOID cast.
# ** Warning: ../../src/hvlTop/dmaTest/2d/dma2dBlockTransferWithXWrapSrcSmallerDesXsizeYWrapSrcEqualDesYsizeAndHwTiAndHiTo.sv(166): (vopt-2875) Task "dump_config_to_file" is being called in function "build_phase".
# ** Warning: ../../src/hvlTop/dmaTest/2d/dma2dBlockTransferWithXWrapSrcSmallerDesXsizeYFillSrcGreaterDesYsizeAndHwTiAndHiTo.sv(31): (vopt-2240) Treating stand-alone use of function 'randomize' as an implicit VOID cast.
# ** Warning: ../../src/hvlTop/dmaTest/2d/dma2dBlockTransferWithXWrapSrcSmallerDesXsizeYFillSrcGreaterDesYsizeAndHwTiAndHiTo.sv(166): (vopt-2875) Task "dump_config_to_file" is being called in function "build_phase".
# ** Warning: ../../src/hvlTop/dmaTest/2d/dma2dBlockTransferWithXWrapSrcSmallerDesXsizeYFillSrcSmallerDesYsizeAndHwTiAndHiTo.sv(31): (vopt-2240) Treating stand-alone use of function 'randomize' as an implicit VOID cast.
# ** Warning: ../../src/hvlTop/dmaTest/2d/dma2dBlockTransferWithXWrapSrcSmallerDesXsizeYFillSrcSmallerDesYsizeAndHwTiAndHiTo.sv(166): (vopt-2875) Task "dump_config_to_file" is being called in function "build_phase".
# ** Warning: ../../src/hvlTop/dmaTest/2d/dma2dBlockTransferWithXWrapSrcSmallerDesXsizeYFillSrcEqualDesYsizeAndHwTiAndHiTo.sv(31): (vopt-2240) Treating stand-alone use of function 'randomize' as an implicit VOID cast.
# ** Warning: ../../src/hvlTop/dmaTest/2d/dma2dBlockTransferWithXWrapSrcSmallerDesXsizeYFillSrcEqualDesYsizeAndHwTiAndHiTo.sv(166): (vopt-2875) Task "dump_config_to_file" is being called in function "build_phase".
# ** Warning: ../../src/hvlTop/dmaTest/2d/dma2dBlockTransferWithXWrapSrcEqualDesXsizeYContinueSrcGreaterDesYsizeAndHwTiAndHiTo.sv(31): (vopt-2240) Treating stand-alone use of function 'randomize' as an implicit VOID cast.
# ** Warning: ../../src/hvlTop/dmaTest/2d/dma2dBlockTransferWithXWrapSrcEqualDesXsizeYContinueSrcGreaterDesYsizeAndHwTiAndHiTo.sv(166): (vopt-2875) Task "dump_config_to_file" is being called in function "build_phase".
# ** Warning: ../../src/hvlTop/dmaTest/2d/dma2dBlockTransferWithXWrapSrcEqualDesXsizeYContinueSrcSmallerDesYsizeAndHwTiAndHiTo.sv(31): (vopt-2240) Treating stand-alone use of function 'randomize' as an implicit VOID cast.
# ** Warning: ../../src/hvlTop/dmaTest/2d/dma2dBlockTransferWithXWrapSrcEqualDesXsizeYContinueSrcSmallerDesYsizeAndHwTiAndHiTo.sv(166): (vopt-2875) Task "dump_config_to_file" is being called in function "build_phase".
# ** Warning: ../../src/hvlTop/dmaTest/2d/dma2dBlockTransferWithXWrapSrcEqualDesXsizeYContinueSrcEqualDesYsizeAndHwTiAndHiTo.sv(31): (vopt-2240) Treating stand-alone use of function 'randomize' as an implicit VOID cast.
# ** Warning: ../../src/hvlTop/dmaTest/2d/dma2dBlockTransferWithXWrapSrcEqualDesXsizeYContinueSrcEqualDesYsizeAndHwTiAndHiTo.sv(166): (vopt-2875) Task "dump_config_to_file" is being called in function "build_phase".
# ** Warning: ../../src/hvlTop/dmaTest/2d/dma2dBlockTransferWithXWrapSrcEqualDesXsizeYWrapSrcGreaterDesYsizeAndHwTiAndHiTo.sv(31): (vopt-2240) Treating stand-alone use of function 'randomize' as an implicit VOID cast.
# ** Warning: ../../src/hvlTop/dmaTest/2d/dma2dBlockTransferWithXWrapSrcEqualDesXsizeYWrapSrcGreaterDesYsizeAndHwTiAndHiTo.sv(166): (vopt-2875) Task "dump_config_to_file" is being called in function "build_phase".
# ** Warning: ../../src/hvlTop/dmaTest/2d/dma2dBlockTransferWithXWrapSrcEqualDesXsizeYWrapSrcSmallerDesYsizeAndHwTiAndHiTo.sv(31): (vopt-2240) Treating stand-alone use of function 'randomize' as an implicit VOID cast.
# ** Warning: ../../src/hvlTop/dmaTest/2d/dma2dBlockTransferWithXWrapSrcEqualDesXsizeYWrapSrcSmallerDesYsizeAndHwTiAndHiTo.sv(166): (vopt-2875) Task "dump_config_to_file" is being called in function "build_phase".
# ** Warning: ../../src/hvlTop/dmaTest/2d/dma2dBlockTransferWithXWrapSrcEqualDesXsizeYWrapSrcEqualDesYsizeAndHwTiAndHiTo.sv(31): (vopt-2240) Treating stand-alone use of function 'randomize' as an implicit VOID cast.
# ** Warning: ../../src/hvlTop/dmaTest/2d/dma2dBlockTransferWithXWrapSrcEqualDesXsizeYWrapSrcEqualDesYsizeAndHwTiAndHiTo.sv(166): (vopt-2875) Task "dump_config_to_file" is being called in function "build_phase".
# ** Warning: ../../src/hvlTop/dmaTest/2d/dma2dBlockTransferWithXWrapSrcEqualDesXsizeYFillSrcGreaterDesYsizeAndHwTiAndHiTo.sv(31): (vopt-2240) Treating stand-alone use of function 'randomize' as an implicit VOID cast.
# ** Warning: ../../src/hvlTop/dmaTest/2d/dma2dBlockTransferWithXWrapSrcEqualDesXsizeYFillSrcGreaterDesYsizeAndHwTiAndHiTo.sv(166): (vopt-2875) Task "dump_config_to_file" is being called in function "build_phase".
# ** Warning: ../../src/hvlTop/dmaTest/2d/dma2dBlockTransferWithXWrapSrcEqualDesXsizeYFillSrcSmallerDesYsizeAndHwTiAndHiTo.sv(31): (vopt-2240) Treating stand-alone use of function 'randomize' as an implicit VOID cast.
# ** Warning: ../../src/hvlTop/dmaTest/2d/dma2dBlockTransferWithXWrapSrcEqualDesXsizeYFillSrcSmallerDesYsizeAndHwTiAndHiTo.sv(166): (vopt-2875) Task "dump_config_to_file" is being called in function "build_phase".
# ** Warning: ../../src/hvlTop/dmaTest/2d/dma2dBlockTransferWithXWrapSrcEqualDesXsizeYFillSrcEqualDesYsizeAndHwTiAndHiTo.sv(31): (vopt-2240) Treating stand-alone use of function 'randomize' as an implicit VOID cast.
# ** Warning: ../../src/hvlTop/dmaTest/2d/dma2dBlockTransferWithXWrapSrcEqualDesXsizeYFillSrcEqualDesYsizeAndHwTiAndHiTo.sv(166): (vopt-2875) Task "dump_config_to_file" is being called in function "build_phase".
# ** Warning: ../../src/hvlTop/dmaTest/2d/dma2dBlockTransferWithXFillSrcGreaterDesXsizeYContinueSrcGreaterDesYsizeAndHwTiAndHiTo.sv(31): (vopt-2240) Treating stand-alone use of function 'randomize' as an implicit VOID cast.
# ** Warning: ../../src/hvlTop/dmaTest/2d/dma2dBlockTransferWithXFillSrcGreaterDesXsizeYContinueSrcGreaterDesYsizeAndHwTiAndHiTo.sv(166): (vopt-2875) Task "dump_config_to_file" is being called in function "build_phase".
# ** Warning: ../../src/hvlTop/dmaTest/2d/dma2dBlockTransferWithXFillSrcGreaterDesXsizeYContinueSrcSmallerDesYsizeAndHwTiAndHiTo.sv(31): (vopt-2240) Treating stand-alone use of function 'randomize' as an implicit VOID cast.
# ** Warning: ../../src/hvlTop/dmaTest/2d/dma2dBlockTransferWithXFillSrcGreaterDesXsizeYContinueSrcSmallerDesYsizeAndHwTiAndHiTo.sv(166): (vopt-2875) Task "dump_config_to_file" is being called in function "build_phase".
# ** Warning: ../../src/hvlTop/dmaTest/2d/dma2dBlockTransferWithXFillSrcGreaterDesXsizeYContinueSrcEqualDesYsizeAndHwTiAndHiTo.sv(31): (vopt-2240) Treating stand-alone use of function 'randomize' as an implicit VOID cast.
# ** Warning: ../../src/hvlTop/dmaTest/2d/dma2dBlockTransferWithXFillSrcGreaterDesXsizeYContinueSrcEqualDesYsizeAndHwTiAndHiTo.sv(166): (vopt-2875) Task "dump_config_to_file" is being called in function "build_phase".
# ** Warning: ../../src/hvlTop/dmaTest/2d/dma2dBlockTransferWithXFillSrcGreaterDesXsizeYWrapSrcGreaterDesYsizeAndHwTiAndHiTo.sv(31): (vopt-2240) Treating stand-alone use of function 'randomize' as an implicit VOID cast.
# ** Warning: ../../src/hvlTop/dmaTest/2d/dma2dBlockTransferWithXFillSrcGreaterDesXsizeYWrapSrcGreaterDesYsizeAndHwTiAndHiTo.sv(166): (vopt-2875) Task "dump_config_to_file" is being called in function "build_phase".
# ** Warning: ../../src/hvlTop/dmaTest/2d/dma2dBlockTransferWithXFillSrcGreaterDesXsizeYWrapSrcSmallerDesYsizeAndHwTiAndHiTo.sv(31): (vopt-2240) Treating stand-alone use of function 'randomize' as an implicit VOID cast.
# ** Warning: ../../src/hvlTop/dmaTest/2d/dma2dBlockTransferWithXFillSrcGreaterDesXsizeYWrapSrcSmallerDesYsizeAndHwTiAndHiTo.sv(166): (vopt-2875) Task "dump_config_to_file" is being called in function "build_phase".
# ** Warning: ../../src/hvlTop/dmaTest/2d/dma2dBlockTransferWithXFillSrcGreaterDesXsizeYWrapSrcEqualDesYsizeAndHwTiAndHiTo.sv(31): (vopt-2240) Treating stand-alone use of function 'randomize' as an implicit VOID cast.
# ** Warning: ../../src/hvlTop/dmaTest/2d/dma2dBlockTransferWithXFillSrcGreaterDesXsizeYWrapSrcEqualDesYsizeAndHwTiAndHiTo.sv(166): (vopt-2875) Task "dump_config_to_file" is being called in function "build_phase".
# ** Warning: ../../src/hvlTop/dmaTest/2d/dma2dBlockTransferWithXFillSrcGreaterDesXsizeYFillSrcGreaterDesYsizeAndHwTiAndHiTo.sv(31): (vopt-2240) Treating stand-alone use of function 'randomize' as an implicit VOID cast.
# ** Warning: ../../src/hvlTop/dmaTest/2d/dma2dBlockTransferWithXFillSrcGreaterDesXsizeYFillSrcGreaterDesYsizeAndHwTiAndHiTo.sv(166): (vopt-2875) Task "dump_config_to_file" is being called in function "build_phase".
# ** Warning: ../../src/hvlTop/dmaTest/2d/dma2dBlockTransferWithXFillSrcGreaterDesXsizeYFillSrcSmallerDesYsizeAndHwTiAndHiTo.sv(31): (vopt-2240) Treating stand-alone use of function 'randomize' as an implicit VOID cast.
# ** Warning: ../../src/hvlTop/dmaTest/2d/dma2dBlockTransferWithXFillSrcGreaterDesXsizeYFillSrcSmallerDesYsizeAndHwTiAndHiTo.sv(166): (vopt-2875) Task "dump_config_to_file" is being called in function "build_phase".
# ** Warning: ../../src/hvlTop/dmaTest/2d/dma2dBlockTransferWithXFillSrcGreaterDesXsizeYFillSrcEqualDesYsizeAndHwTiAndHiTo.sv(31): (vopt-2240) Treating stand-alone use of function 'randomize' as an implicit VOID cast.
# ** Warning: ../../src/hvlTop/dmaTest/2d/dma2dBlockTransferWithXFillSrcGreaterDesXsizeYFillSrcEqualDesYsizeAndHwTiAndHiTo.sv(166): (vopt-2875) Task "dump_config_to_file" is being called in function "build_phase".
# ** Warning: ../../src/hvlTop/dmaTest/2d/dma2dBlockTransferWithXFillSrcSmallerDesXsizeYContinueSrcGreaterDesYsizeAndHwTiAndHiTo.sv(31): (vopt-2240) Treating stand-alone use of function 'randomize' as an implicit VOID cast.
# ** Warning: ../../src/hvlTop/dmaTest/2d/dma2dBlockTransferWithXFillSrcSmallerDesXsizeYContinueSrcGreaterDesYsizeAndHwTiAndHiTo.sv(166): (vopt-2875) Task "dump_config_to_file" is being called in function "build_phase".
# ** Warning: ../../src/hvlTop/dmaTest/2d/dma2dBlockTransferWithXFillSrcSmallerDesXsizeYContinueSrcSmallerDesYsizeAndHwTiAndHiTo.sv(31): (vopt-2240) Treating stand-alone use of function 'randomize' as an implicit VOID cast.
# ** Warning: ../../src/hvlTop/dmaTest/2d/dma2dBlockTransferWithXFillSrcSmallerDesXsizeYContinueSrcSmallerDesYsizeAndHwTiAndHiTo.sv(166): (vopt-2875) Task "dump_config_to_file" is being called in function "build_phase".
# ** Warning: ../../src/hvlTop/dmaTest/2d/dma2dBlockTransferWithXFillSrcSmallerDesXsizeYContinueSrcEqualDesYsizeAndHwTiAndHiTo.sv(31): (vopt-2240) Treating stand-alone use of function 'randomize' as an implicit VOID cast.
# ** Warning: ../../src/hvlTop/dmaTest/2d/dma2dBlockTransferWithXFillSrcSmallerDesXsizeYContinueSrcEqualDesYsizeAndHwTiAndHiTo.sv(166): (vopt-2875) Task "dump_config_to_file" is being called in function "build_phase".
# ** Warning: ../../src/hvlTop/dmaTest/2d/dma2dBlockTransferWithXFillSrcSmallerDesXsizeYWrapSrcGreaterDesYsizeAndHwTiAndHiTo.sv(31): (vopt-2240) Treating stand-alone use of function 'randomize' as an implicit VOID cast.
# ** Warning: ../../src/hvlTop/dmaTest/2d/dma2dBlockTransferWithXFillSrcSmallerDesXsizeYWrapSrcGreaterDesYsizeAndHwTiAndHiTo.sv(166): (vopt-2875) Task "dump_config_to_file" is being called in function "build_phase".
# ** Warning: ../../src/hvlTop/dmaTest/2d/dma2dBlockTransferWithXFillSrcSmallerDesXsizeYWrapSrcSmallerDesYsizeAndHwTiAndHiTo.sv(31): (vopt-2240) Treating stand-alone use of function 'randomize' as an implicit VOID cast.
# ** Warning: ../../src/hvlTop/dmaTest/2d/dma2dBlockTransferWithXFillSrcSmallerDesXsizeYWrapSrcSmallerDesYsizeAndHwTiAndHiTo.sv(166): (vopt-2875) Task "dump_config_to_file" is being called in function "build_phase".
# ** Warning: ../../src/hvlTop/dmaTest/2d/dma2dBlockTransferWithXFillSrcSmallerDesXsizeYWrapSrcEqualDesYsizeAndHwTiAndHiTo.sv(31): (vopt-2240) Treating stand-alone use of function 'randomize' as an implicit VOID cast.
# ** Warning: ../../src/hvlTop/dmaTest/2d/dma2dBlockTransferWithXFillSrcSmallerDesXsizeYWrapSrcEqualDesYsizeAndHwTiAndHiTo.sv(166): (vopt-2875) Task "dump_config_to_file" is being called in function "build_phase".
# ** Warning: ../../src/hvlTop/dmaTest/2d/dma2dBlockTransferWithXFillSrcSmallerDesXsizeYFillSrcGreaterDesYsizeAndHwTiAndHiTo.sv(31): (vopt-2240) Treating stand-alone use of function 'randomize' as an implicit VOID cast.
# ** Warning: ../../src/hvlTop/dmaTest/2d/dma2dBlockTransferWithXFillSrcSmallerDesXsizeYFillSrcGreaterDesYsizeAndHwTiAndHiTo.sv(166): (vopt-2875) Task "dump_config_to_file" is being called in function "build_phase".
# ** Warning: ../../src/hvlTop/dmaTest/2d/dma2dBlockTransferWithXFillSrcSmallerDesXsizeYFillSrcSmallerDesYsizeAndHwTiAndHiTo.sv(31): (vopt-2240) Treating stand-alone use of function 'randomize' as an implicit VOID cast.
# ** Warning: ../../src/hvlTop/dmaTest/2d/dma2dBlockTransferWithXFillSrcSmallerDesXsizeYFillSrcSmallerDesYsizeAndHwTiAndHiTo.sv(166): (vopt-2875) Task "dump_config_to_file" is being called in function "build_phase".
# ** Warning: ../../src/hvlTop/dmaTest/2d/dma2dBlockTransferWithXFillSrcSmallerDesXsizeYFillSrcEqualDesYsizeAndHwTiAndHiTo.sv(31): (vopt-2240) Treating stand-alone use of function 'randomize' as an implicit VOID cast.
# ** Warning: ../../src/hvlTop/dmaTest/2d/dma2dBlockTransferWithXFillSrcSmallerDesXsizeYFillSrcEqualDesYsizeAndHwTiAndHiTo.sv(166): (vopt-2875) Task "dump_config_to_file" is being called in function "build_phase".
# ** Warning: ../../src/hvlTop/dmaTest/2d/dma2dBlockTransferWithXFillSrcEqualDesXsizeYContinueSrcGreaterDesYsizeAndHwTiAndHiTo.sv(31): (vopt-2240) Treating stand-alone use of function 'randomize' as an implicit VOID cast.
# ** Warning: ../../src/hvlTop/dmaTest/2d/dma2dBlockTransferWithXFillSrcEqualDesXsizeYContinueSrcGreaterDesYsizeAndHwTiAndHiTo.sv(166): (vopt-2875) Task "dump_config_to_file" is being called in function "build_phase".
# ** Warning: ../../src/hvlTop/dmaTest/2d/dma2dBlockTransferWithXFillSrcEqualDesXsizeYContinueSrcSmallerDesYsizeAndHwTiAndHiTo.sv(31): (vopt-2240) Treating stand-alone use of function 'randomize' as an implicit VOID cast.
# ** Warning: ../../src/hvlTop/dmaTest/2d/dma2dBlockTransferWithXFillSrcEqualDesXsizeYContinueSrcSmallerDesYsizeAndHwTiAndHiTo.sv(166): (vopt-2875) Task "dump_config_to_file" is being called in function "build_phase".
# ** Warning: ../../src/hvlTop/dmaTest/2d/dma2dBlockTransferWithXFillSrcEqualDesXsizeYContinueSrcEqualDesYsizeAndHwTiAndHiTo.sv(31): (vopt-2240) Treating stand-alone use of function 'randomize' as an implicit VOID cast.
# ** Warning: ../../src/hvlTop/dmaTest/2d/dma2dBlockTransferWithXFillSrcEqualDesXsizeYContinueSrcEqualDesYsizeAndHwTiAndHiTo.sv(166): (vopt-2875) Task "dump_config_to_file" is being called in function "build_phase".
# ** Warning: ../../src/hvlTop/dmaTest/2d/dma2dBlockTransferWithXFillSrcEqualDesXsizeYWrapSrcGreaterDesYsizeAndHwTiAndHiTo.sv(31): (vopt-2240) Treating stand-alone use of function 'randomize' as an implicit VOID cast.
# ** Warning: ../../src/hvlTop/dmaTest/2d/dma2dBlockTransferWithXFillSrcEqualDesXsizeYWrapSrcGreaterDesYsizeAndHwTiAndHiTo.sv(166): (vopt-2875) Task "dump_config_to_file" is being called in function "build_phase".
# ** Warning: ../../src/hvlTop/dmaTest/2d/dma2dBlockTransferWithXFillSrcEqualDesXsizeYWrapSrcSmallerDesYsizeAndHwTiAndHiTo.sv(31): (vopt-2240) Treating stand-alone use of function 'randomize' as an implicit VOID cast.
# ** Warning: ../../src/hvlTop/dmaTest/2d/dma2dBlockTransferWithXFillSrcEqualDesXsizeYWrapSrcSmallerDesYsizeAndHwTiAndHiTo.sv(166): (vopt-2875) Task "dump_config_to_file" is being called in function "build_phase".
# ** Warning: ../../src/hvlTop/dmaTest/2d/dma2dBlockTransferWithXFillSrcEqualDesXsizeYWrapSrcEqualDesYsizeAndHwTiAndHiTo.sv(31): (vopt-2240) Treating stand-alone use of function 'randomize' as an implicit VOID cast.
# ** Warning: ../../src/hvlTop/dmaTest/2d/dma2dBlockTransferWithXFillSrcEqualDesXsizeYWrapSrcEqualDesYsizeAndHwTiAndHiTo.sv(166): (vopt-2875) Task "dump_config_to_file" is being called in function "build_phase".
# ** Warning: ../../src/hvlTop/dmaTest/2d/dma2dBlockTransferWithXFillSrcEqualDesXsizeYFillSrcGreaterDesYsizeAndHwTiAndHiTo.sv(31): (vopt-2240) Treating stand-alone use of function 'randomize' as an implicit VOID cast.
# ** Warning: ../../src/hvlTop/dmaTest/2d/dma2dBlockTransferWithXFillSrcEqualDesXsizeYFillSrcGreaterDesYsizeAndHwTiAndHiTo.sv(166): (vopt-2875) Task "dump_config_to_file" is being called in function "build_phase".
# ** Warning: ../../src/hvlTop/dmaTest/2d/dma2dBlockTransferWithXFillSrcEqualDesXsizeYFillSrcSmallerDesYsizeAndHwTiAndHiTo.sv(31): (vopt-2240) Treating stand-alone use of function 'randomize' as an implicit VOID cast.
# ** Warning: ../../src/hvlTop/dmaTest/2d/dma2dBlockTransferWithXFillSrcEqualDesXsizeYFillSrcSmallerDesYsizeAndHwTiAndHiTo.sv(166): (vopt-2875) Task "dump_config_to_file" is being called in function "build_phase".
# ** Warning: ../../src/hvlTop/dmaTest/2d/dma2dBlockTransferWithXFillSrcEqualDesXsizeYFillSrcEqualDesYsizeAndHwTiAndHiTo.sv(31): (vopt-2240) Treating stand-alone use of function 'randomize' as an implicit VOID cast.
# ** Warning: ../../src/hvlTop/dmaTest/2d/dma2dBlockTransferWithXFillSrcEqualDesXsizeYFillSrcEqualDesYsizeAndHwTiAndHiTo.sv(166): (vopt-2875) Task "dump_config_to_file" is being called in function "build_phase".
# ** Warning: ../../src/hvlTop/dmaTest/addressIncrement/dma1dBlockTransferWithSrcAddrIncrEqualDesAddrIncrAndHwTiAndHiTo.sv(31): (vopt-2240) Treating stand-alone use of function 'randomize' as an implicit VOID cast.
# ** Warning: ../../src/hvlTop/dmaTest/addressIncrement/dma1dBlockTransferWithSrcAddrIncrEqualDesAddrIncrAndHwTiAndHiTo.sv(302): (vopt-2875) Task "dump_config_to_file" is being called in function "build_phase".
# ** Warning: ../../src/hvlTop/dmaTest/addressIncrement/dma1dBlockTransferWithSrcAddrIncrGreaterThanDesAddrIncrAndHwTiAndHiTo.sv(31): (vopt-2240) Treating stand-alone use of function 'randomize' as an implicit VOID cast.
# ** Warning: ../../src/hvlTop/dmaTest/addressIncrement/dma1dBlockTransferWithSrcAddrIncrGreaterThanDesAddrIncrAndHwTiAndHiTo.sv(302): (vopt-2875) Task "dump_config_to_file" is being called in function "build_phase".
# ** Warning: ../../src/hvlTop/dmaTest/addressIncrement/dma1dBlockTransferWithSrcAddrIncrSmallerThanDesAddrIncrAndHwTiAndHiTo.sv(31): (vopt-2240) Treating stand-alone use of function 'randomize' as an implicit VOID cast.
# ** Warning: ../../src/hvlTop/dmaTest/addressIncrement/dma1dBlockTransferWithSrcAddrIncrSmallerThanDesAddrIncrAndHwTiAndHiTo.sv(302): (vopt-2875) Task "dump_config_to_file" is being called in function "build_phase".
# ** Warning: ../../src/hvlTop/dmaTest/addressIncrement/dma1dBlockTransferWithSrcAddrIncrZeroDesAddrIncrNonZeroAndHwTiAndHiTo.sv(31): (vopt-2240) Treating stand-alone use of function 'randomize' as an implicit VOID cast.
# ** Warning: ../../src/hvlTop/dmaTest/addressIncrement/dma1dBlockTransferWithSrcAddrIncrZeroDesAddrIncrNonZeroAndHwTiAndHiTo.sv(302): (vopt-2875) Task "dump_config_to_file" is being called in function "build_phase".
# ** Warning: ../../src/hvlTop/dmaTest/addressIncrement/dma1dBlockTransferWithSrcAddrIncrNonZeroDesAddrIncrZeroAndHwTiAndHiTo.sv(31): (vopt-2240) Treating stand-alone use of function 'randomize' as an implicit VOID cast.
# ** Warning: ../../src/hvlTop/dmaTest/addressIncrement/dma1dBlockTransferWithSrcAddrIncrNonZeroDesAddrIncrZeroAndHwTiAndHiTo.sv(302): (vopt-2875) Task "dump_config_to_file" is being called in function "build_phase".
# ** Warning: ../../src/hvlTop/dmaTest/addressIncrement/dma1dBlockTransferWithSrcAddrIncrTwoDesAddrIncrFourAndHwTiAndHiTo.sv(31): (vopt-2240) Treating stand-alone use of function 'randomize' as an implicit VOID cast.
# ** Warning: ../../src/hvlTop/dmaTest/addressIncrement/dma1dBlockTransferWithSrcAddrIncrTwoDesAddrIncrFourAndHwTiAndHiTo.sv(302): (vopt-2875) Task "dump_config_to_file" is being called in function "build_phase".
# ** Warning: ../../src/hvlTop/dmaTest/addressIncrement/dma1dBlockTransferWithSrcAddrIncrFourDesAddrIncrTwoAndHwTiAndHiTo.sv(31): (vopt-2240) Treating stand-alone use of function 'randomize' as an implicit VOID cast.
# ** Warning: ../../src/hvlTop/dmaTest/addressIncrement/dma1dBlockTransferWithSrcAddrIncrFourDesAddrIncrTwoAndHwTiAndHiTo.sv(302): (vopt-2875) Task "dump_config_to_file" is being called in function "build_phase".
# ** Warning: ../../src/hvlTop/dmaTest/addressIncrement/dma1dBlockTransferWithSrcAndDesAddrIncrMaxPositiveAndHwTiAndHiTo.sv(31): (vopt-2240) Treating stand-alone use of function 'randomize' as an implicit VOID cast.
# ** Warning: ../../src/hvlTop/dmaTest/addressIncrement/dma1dBlockTransferWithSrcAndDesAddrIncrMaxPositiveAndHwTiAndHiTo.sv(302): (vopt-2875) Task "dump_config_to_file" is being called in function "build_phase".
# ** Warning: ../../src/hvlTop/dmaTest/addressIncrement/dma1dBlockTransferWithSrcAndDesAddrIncrEqualSixteenAndHwTiAndHiTo.sv(31): (vopt-2240) Treating stand-alone use of function 'randomize' as an implicit VOID cast.
# ** Warning: ../../src/hvlTop/dmaTest/addressIncrement/dma1dBlockTransferWithSrcAndDesAddrIncrEqualSixteenAndHwTiAndHiTo.sv(302): (vopt-2875) Task "dump_config_to_file" is being called in function "build_phase".
# ** Warning: ../../src/hvlTop/dmaTest/addressIncrement/dma1dBlockTransferWithSrcAndDesAddrIncrBit15SetWithIncrOneAndHwTiAndHiTo.sv(31): (vopt-2240) Treating stand-alone use of function 'randomize' as an implicit VOID cast.
# ** Warning: ../../src/hvlTop/dmaTest/addressIncrement/dma1dBlockTransferWithSrcAndDesAddrIncrBit15SetWithIncrOneAndHwTiAndHiTo.sv(302): (vopt-2875) Task "dump_config_to_file" is being called in function "build_phase".
# ** Warning: ../../src/hvlTop/dmaTest/addressIncrement/dma1dBlockTransferWithSrcAddrIncrBit15SetGreaterThanDesAddrIncrBit15SetAndHwTiAndHiTo.sv(31): (vopt-2240) Treating stand-alone use of function 'randomize' as an implicit VOID cast.
# ** Warning: ../../src/hvlTop/dmaTest/addressIncrement/dma1dBlockTransferWithSrcAddrIncrBit15SetGreaterThanDesAddrIncrBit15SetAndHwTiAndHiTo.sv(302): (vopt-2875) Task "dump_config_to_file" is being called in function "build_phase".
# ** Warning: ../../src/hvlTop/dmaTest/addressIncrement/dma1dBlockTransferWithSrcAddrIncrBit15SetSmallerThanDesAddrIncrBit15SetAndHwTiAndHiTo.sv(31): (vopt-2240) Treating stand-alone use of function 'randomize' as an implicit VOID cast.
# ** Warning: ../../src/hvlTop/dmaTest/addressIncrement/dma1dBlockTransferWithSrcAddrIncrBit15SetSmallerThanDesAddrIncrBit15SetAndHwTiAndHiTo.sv(302): (vopt-2875) Task "dump_config_to_file" is being called in function "build_phase".
# //  Questa Sim
# //  Version 10.6c linux Jul 25 2017
# //
# //  Copyright 1991-2017 Mentor Graphics Corporation
# //  All Rights Reserved.
# //
# //  QuestaSim and its associated documentation contain trade
# //  secrets and commercial or financial information that are the property of
# //  Mentor Graphics Corporation and are privileged, confidential,
# //  and exempt from disclosure under the Freedom of Information Act,
# //  5 U.S.C. Section 552. Furthermore, this information
# //  is prohibited from disclosure under the Trade Secrets Act,
# //  18 U.S.C. Section 1905.
# //
# Loading sv_std.std
# Loading work.axi4_master_driver_bfm(fast)
# Loading work.triggerMasterDriverBfm(fast)
# Loading work.interruptSlaveDriverBfm(fast)
# Loading work.interruptSlaveMonitorBfm(fast)
# Loading work.interruptGlobalPkg(fast)
# Loading mtiUvm.uvm_pkg
# Loading work.interruptSlavePkg(fast)
# Loading work.apb_master_driver_bfm(fast)
# Loading work.apb_master_monitor_bfm(fast)
# Loading work.apb_global_pkg(fast)
# Loading work.apb_master_pkg(fast)
# Loading work.configUnitEnvPkg(fast)
# Loading work.axi4_globals_pkg(fast)
# Loading work.dmaGlobalPkg(fast)
# Loading work.axi4_slave_pkg(fast)
# Loading work.axi4_master_pkg(fast)
# Loading work.triggerGlobalPkg(fast)
# Loading work.triggerSlavePkg(fast)
# Loading work.triggerMasterPkg(fast)
# Loading work.peripheralEnvPkg(fast)
# Loading work.topEnvPkg(fast)
# Loading work.configUnitVirtualSeqPkg(fast)
# Loading work.triggerMasterSequencePkg(fast)
# Loading work.axi4_slave_seq_pkg(fast)
# Loading work.peripheralVirtualSeqPkg(fast)
# Loading work.topVirtualSeqPkg(fast)
# Loading work.dmaTestPkg(fast)
# Loading work.axi4_master_monitor_bfm(fast)
# Loading work.axi4_slave_driver_bfm(fast)
# Loading work.axi4_slave_monitor_bfm(fast)
# Loading work.triggerSlaveMonitorBfm(fast)
# Loading work.triggerSlaveDriverBfm(fast)
# Loading work.triggerMasterMonitorBfm(fast)
# Loading work.HvlTop(fast)
# Loading work.hdlTop(fast)
# Loading work.apb_if_sv_unit(fast)
# Loading work.apb_if(fast)
# Loading work.interruptInterface_sv_unit(fast)
# Loading work.interruptInterface(fast)
# Loading work.top_mod(fast)
# Loading work.apb_reg(fast)
# Loading work.apb_slave(fast)
# Loading work.register_bank(fast)
# Loading work.global_channel(fast)
# Loading work.dma_channel(fast)
# Loading work.internal_reg(fast)
# Loading work.partselect(fast)
# Loading work.cmd_fsm(fast)
# Loading work.mux_logic(fast)
# Loading work.mux(fast)
# Loading work.data_fsm(fast)
# Loading work.biu(fast)
# Loading work.trigger_matrix(fast)
# Loading work.AxiGlobalPackage(fast)
# Loading work.interrconnect_sv_unit(fast)
# Loading work.AxiInterconnect(fast)
# Loading work.axi4_master_agent_bfm(fast)
# Loading work.axi4_master_driver_bfm_sv_unit(fast)
# Loading work.axi4_master_driver_bfm(fast)
# Loading work.axi4_master_monitor_bfm_sv_unit(fast)
# Loading work.axi4_master_monitor_bfm(fast)
# Loading work.axi4_slave_agent_bfm(fast)
# Loading work.axi4_slave_driver_bfm_sv_unit(fast)
# Loading work.axi4_slave_driver_bfm(fast)
# Loading work.axi4_slave_monitor_bfm_sv_unit(fast)
# Loading work.axi4_slave_monitor_bfm(fast)
# Loading work.triggerMasterAgentBfm(fast)
# Loading work.triggerMasterDriverBfm(fast)
# Loading work.triggerMasterMonitorBfm(fast)
# Loading work.triggerSlaveAgentBfm(fast)
# Loading work.triggerSlaveDriverBfm(fast)
# Loading work.triggerSlaveMonitorBfm(fast)
# Loading work.axi4_master_agent_bfm(fast__1)
# Loading work.axi4_slave_agent_bfm(fast__1)
# Loading work.triggerMasterAgentBfm(fast__1)
# Loading work.triggerSlaveAgentBfm(fast__1)
# Loading work.axi4_master_agent_bfm(fast__2)
# Loading work.axi4_slave_agent_bfm(fast__2)
# Loading work.triggerMasterAgentBfm(fast__2)
# Loading work.triggerSlaveAgentBfm(fast__2)
# Loading work.axi4_master_agent_bfm(fast__3)
# Loading work.axi4_slave_agent_bfm(fast__3)
# Loading work.triggerMasterAgentBfm(fast__3)
# Loading work.triggerSlaveAgentBfm(fast__3)
# Loading work.apb_master_agent_bfm(fast)
# Loading work.apb_master_driver_bfm_sv_unit(fast)
# Loading work.apb_master_driver_bfm(fast)
# Loading work.apb_master_monitor_bfm_sv_unit(fast)
# Loading work.apb_master_monitor_bfm(fast)
# Loading work.interruptSlaveAgentBfm(fast)
# Loading work.interruptSlaveDriverBfm(fast)
# Loading work.interruptSlaveMonitorBfm(fast)
# Loading work.interruptMasterAgentBfm(fast)
# Loading work.interruptMasterDriverBfm(fast)
# Loading work.interruptMasterMonitorBfm(fast)
# Loading mtiUvm.questa_uvm_pkg(fast)
# Loading work.axi4_if_sv_unit(fast)
# Loading work.axi4_if(fast__1)
# Loading work.axi4_if(fast__2)
# Loading work.triggerInterface(fast)
# Loading work.interruptMasterDriverBfm(fast)
# Loading work.interruptMasterMonitorBfm(fast)
# ** Warning: (vsim-3015) ../../src/hdlTop/hdlTop.sv(40): [PCDPC] - Port size (1) does not match connection size (32) for port 'boot_en'. The port definition is at: ../../../RTL/top_mod.v(17).
#    Time: 0 ps  Iteration: 0  Instance: /hdlTop/u_dma File: ../../../RTL/top_mod.v
# ** Warning: (vsim-3015) ../../src/hdlTop/hdlTop.sv(40): [PCDPC] - Port size (6) does not match connection size (4) for port 'trig_req'. The port definition is at: ../../../RTL/top_mod.v(31).
#    Time: 0 ps  Iteration: 0  Instance: /hdlTop/u_dma File: ../../../RTL/top_mod.v
# ** Warning: (vsim-3015) ../../src/hdlTop/hdlTop.sv(40): [PCDPC] - Port size (12) does not match connection size (8) for port 'trig_req_type'. The port definition is at: ../../../RTL/top_mod.v(32).
#    Time: 0 ps  Iteration: 0  Instance: /hdlTop/u_dma File: ../../../RTL/top_mod.v
# ** Warning: (vsim-3015) ../../src/hdlTop/hdlTop.sv(40): [PCDPC] - Port size (6) does not match connection size (4) for port 'trig_ack'. The port definition is at: ../../../RTL/top_mod.v(33).
#    Time: 0 ps  Iteration: 0  Instance: /hdlTop/u_dma File: ../../../RTL/top_mod.v
# ** Warning: (vsim-3015) ../../src/hdlTop/hdlTop.sv(40): [PCDPC] - Port size (12) does not match connection size (8) for port 'trig_ack_type'. The port definition is at: ../../../RTL/top_mod.v(34).
#    Time: 0 ps  Iteration: 0  Instance: /hdlTop/u_dma File: ../../../RTL/top_mod.v
# ** Warning: (vsim-3015) ../../src/hdlTop/hdlTop.sv(40): [PCDPC] - Port size (6) does not match connection size (4) for port 'trig_out_req'. The port definition is at: ../../../RTL/top_mod.v(36).
#    Time: 0 ps  Iteration: 0  Instance: /hdlTop/u_dma File: ../../../RTL/top_mod.v
# ** Warning: (vsim-3015) ../../src/hdlTop/hdlTop.sv(40): [PCDPC] - Port size (6) does not match connection size (4) for port 'trig_out_ack'. The port definition is at: ../../../RTL/top_mod.v(37).
#    Time: 0 ps  Iteration: 0  Instance: /hdlTop/u_dma File: ../../../RTL/top_mod.v
# ** Warning: (vsim-3015) ../../src/hdlTop/hdlTop.sv(40): [PCDPC] - Port size (8) does not match connection size (4) for port 'AWLEN_D'. The port definition is at: ../../../RTL/top_mod.v(64).
#    Time: 0 ps  Iteration: 0  Instance: /hdlTop/u_dma File: ../../../RTL/top_mod.v
# ** Warning: (vsim-3015) ../../src/hdlTop/hdlTop.sv(40): [PCDPC] - Port size (3) does not match connection size (1) for port 'IRQ'. The port definition is at: ../../../RTL/top_mod.v(73).
#    Time: 0 ps  Iteration: 0  Instance: /hdlTop/u_dma File: ../../../RTL/top_mod.v
# ** Warning: (vsim-3839) ../../src/hdlTop/interrconnect.sv(351): Variable '/hdlTop/axi4InterfaceHandle[0]/rready', driven via a port connection, is multiply driven. See ../../src/hdlTop/axiMasterAgentBfm/axi4_master_agent_bfm.sv(18).
#    Time: 0 ps  Iteration: 0  Region: /hdlTop/inter/m2s_routing[0] File: ../../src/hdlTop/interrconnect.sv
# ** Warning: (vsim-3839) ../../src/hdlTop/interrconnect.sv(349): Variable '/hdlTop/axi4InterfaceHandle[0]/arvalid', driven via a port connection, is multiply driven. See ../../src/hdlTop/axiMasterAgentBfm/axi4_master_agent_bfm.sv(18).
#    Time: 0 ps  Iteration: 0  Region: /hdlTop/inter/m2s_routing[0] File: ../../src/hdlTop/interrconnect.sv
# ** Warning: (vsim-3839) ../../src/hdlTop/interrconnect.sv(348): Variable '/hdlTop/axi4InterfaceHandle[0]/arqos', driven via a port connection, is multiply driven. See ../../src/hdlTop/axiMasterAgentBfm/axi4_master_agent_bfm.sv(18).
#    Time: 0 ps  Iteration: 0  Region: /hdlTop/inter/m2s_routing[0] File: ../../src/hdlTop/interrconnect.sv
# ** Warning: (vsim-3839) ../../src/hdlTop/interrconnect.sv(347): Variable '/hdlTop/axi4InterfaceHandle[0]/arprot', driven via a port connection, is multiply driven. See ../../src/hdlTop/axiMasterAgentBfm/axi4_master_agent_bfm.sv(18).
#    Time: 0 ps  Iteration: 0  Region: /hdlTop/inter/m2s_routing[0] File: ../../src/hdlTop/interrconnect.sv
# ** Warning: (vsim-3839) ../../src/hdlTop/interrconnect.sv(346): Variable '/hdlTop/axi4InterfaceHandle[0]/arcache', driven via a port connection, is multiply driven. See ../../src/hdlTop/axiMasterAgentBfm/axi4_master_agent_bfm.sv(18).
#    Time: 0 ps  Iteration: 0  Region: /hdlTop/inter/m2s_routing[0] File: ../../src/hdlTop/interrconnect.sv
# ** Warning: (vsim-3839) ../../src/hdlTop/interrconnect.sv(345): Variable '/hdlTop/axi4InterfaceHandle[0]/arlock', driven via a port connection, is multiply driven. See ../../src/hdlTop/axiMasterAgentBfm/axi4_master_agent_bfm.sv(18).
#    Time: 0 ps  Iteration: 0  Region: /hdlTop/inter/m2s_routing[0] File: ../../src/hdlTop/interrconnect.sv
# ** Warning: (vsim-3839) ../../src/hdlTop/interrconnect.sv(344): Variable '/hdlTop/axi4InterfaceHandle[0]/arburst', driven via a port connection, is multiply driven. See ../../src/hdlTop/axiMasterAgentBfm/axi4_master_agent_bfm.sv(18).
#    Time: 0 ps  Iteration: 0  Region: /hdlTop/inter/m2s_routing[0] File: ../../src/hdlTop/interrconnect.sv
# ** Warning: (vsim-3839) ../../src/hdlTop/interrconnect.sv(343): Variable '/hdlTop/axi4InterfaceHandle[0]/arsize', driven via a port connection, is multiply driven. See ../../src/hdlTop/axiMasterAgentBfm/axi4_master_agent_bfm.sv(18).
#    Time: 0 ps  Iteration: 0  Region: /hdlTop/inter/m2s_routing[0] File: ../../src/hdlTop/interrconnect.sv
# ** Warning: (vsim-3839) ../../src/hdlTop/interrconnect.sv(342): Variable '/hdlTop/axi4InterfaceHandle[0]/arlen', driven via a port connection, is multiply driven. See ../../src/hdlTop/axiMasterAgentBfm/axi4_master_agent_bfm.sv(18).
#    Time: 0 ps  Iteration: 0  Region: /hdlTop/inter/m2s_routing[0] File: ../../src/hdlTop/interrconnect.sv
# ** Warning: (vsim-3839) ../../src/hdlTop/interrconnect.sv(341): Variable '/hdlTop/axi4InterfaceHandle[0]/araddr', driven via a port connection, is multiply driven. See ../../src/hdlTop/axiMasterAgentBfm/axi4_master_agent_bfm.sv(18).
#    Time: 0 ps  Iteration: 0  Region: /hdlTop/inter/m2s_routing[0] File: ../../src/hdlTop/interrconnect.sv
# ** Warning: (vsim-3839) ../../src/hdlTop/interrconnect.sv(340): Variable '/hdlTop/axi4InterfaceHandle[0]/arid', driven via a port connection, is multiply driven. See ../../src/hdlTop/axiMasterAgentBfm/axi4_master_agent_bfm.sv(18).
#    Time: 0 ps  Iteration: 0  Region: /hdlTop/inter/m2s_routing[0] File: ../../src/hdlTop/interrconnect.sv
# ** Warning: (vsim-3839) ../../src/hdlTop/interrconnect.sv(335): Variable '/hdlTop/axi4InterfaceHandle[0]/bready', driven via a port connection, is multiply driven. See ../../src/hdlTop/axiMasterAgentBfm/axi4_master_agent_bfm.sv(18).
#    Time: 0 ps  Iteration: 0  Region: /hdlTop/inter/m2s_routing[0] File: ../../src/hdlTop/interrconnect.sv
# ** Warning: (vsim-3839) ../../src/hdlTop/interrconnect.sv(334): Variable '/hdlTop/axi4InterfaceHandle[0]/wvalid', driven via a port connection, is multiply driven. See ../../src/hdlTop/axiMasterAgentBfm/axi4_master_agent_bfm.sv(18).
#    Time: 0 ps  Iteration: 0  Region: /hdlTop/inter/m2s_routing[0] File: ../../src/hdlTop/interrconnect.sv
# ** Warning: (vsim-3839) ../../src/hdlTop/interrconnect.sv(333): Variable '/hdlTop/axi4InterfaceHandle[0]/wlast', driven via a port connection, is multiply driven. See ../../src/hdlTop/axiMasterAgentBfm/axi4_master_agent_bfm.sv(18).
#    Time: 0 ps  Iteration: 0  Region: /hdlTop/inter/m2s_routing[0] File: ../../src/hdlTop/interrconnect.sv
# ** Warning: (vsim-3839) ../../src/hdlTop/interrconnect.sv(332): Variable '/hdlTop/axi4InterfaceHandle[0]/wstrb', driven via a port connection, is multiply driven. See ../../src/hdlTop/axiMasterAgentBfm/axi4_master_agent_bfm.sv(18).
#    Time: 0 ps  Iteration: 0  Region: /hdlTop/inter/m2s_routing[0] File: ../../src/hdlTop/interrconnect.sv
# ** Warning: (vsim-3839) ../../src/hdlTop/interrconnect.sv(331): Variable '/hdlTop/axi4InterfaceHandle[0]/wdata', driven via a port connection, is multiply driven. See ../../src/hdlTop/axiMasterAgentBfm/axi4_master_agent_bfm.sv(18).
#    Time: 0 ps  Iteration: 0  Region: /hdlTop/inter/m2s_routing[0] File: ../../src/hdlTop/interrconnect.sv
# ** Warning: (vsim-3839) ../../src/hdlTop/interrconnect.sv(329): Variable '/hdlTop/axi4InterfaceHandle[0]/awvalid', driven via a port connection, is multiply driven. See ../../src/hdlTop/axiMasterAgentBfm/axi4_master_agent_bfm.sv(18).
#    Time: 0 ps  Iteration: 0  Region: /hdlTop/inter/m2s_routing[0] File: ../../src/hdlTop/interrconnect.sv
# ** Warning: (vsim-3839) ../../src/hdlTop/interrconnect.sv(328): Variable '/hdlTop/axi4InterfaceHandle[0]/awqos', driven via a port connection, is multiply driven. See ../../src/hdlTop/axiMasterAgentBfm/axi4_master_agent_bfm.sv(18).
#    Time: 0 ps  Iteration: 0  Region: /hdlTop/inter/m2s_routing[0] File: ../../src/hdlTop/interrconnect.sv
# ** Warning: (vsim-3839) ../../src/hdlTop/interrconnect.sv(327): Variable '/hdlTop/axi4InterfaceHandle[0]/awprot', driven via a port connection, is multiply driven. See ../../src/hdlTop/axiMasterAgentBfm/axi4_master_agent_bfm.sv(18).
#    Time: 0 ps  Iteration: 0  Region: /hdlTop/inter/m2s_routing[0] File: ../../src/hdlTop/interrconnect.sv
# ** Warning: (vsim-3839) ../../src/hdlTop/interrconnect.sv(326): Variable '/hdlTop/axi4InterfaceHandle[0]/awcache', driven via a port connection, is multiply driven. See ../../src/hdlTop/axiMasterAgentBfm/axi4_master_agent_bfm.sv(18).
#    Time: 0 ps  Iteration: 0  Region: /hdlTop/inter/m2s_routing[0] File: ../../src/hdlTop/interrconnect.sv
# ** Warning: (vsim-3839) ../../src/hdlTop/interrconnect.sv(325): Variable '/hdlTop/axi4InterfaceHandle[0]/awlock', driven via a port connection, is multiply driven. See ../../src/hdlTop/axiMasterAgentBfm/axi4_master_agent_bfm.sv(18).
#    Time: 0 ps  Iteration: 0  Region: /hdlTop/inter/m2s_routing[0] File: ../../src/hdlTop/interrconnect.sv
# ** Warning: (vsim-3839) ../../src/hdlTop/interrconnect.sv(324): Variable '/hdlTop/axi4InterfaceHandle[0]/awburst', driven via a port connection, is multiply driven. See ../../src/hdlTop/axiMasterAgentBfm/axi4_master_agent_bfm.sv(18).
#    Time: 0 ps  Iteration: 0  Region: /hdlTop/inter/m2s_routing[0] File: ../../src/hdlTop/interrconnect.sv
# ** Warning: (vsim-3839) ../../src/hdlTop/interrconnect.sv(323): Variable '/hdlTop/axi4InterfaceHandle[0]/awsize', driven via a port connection, is multiply driven. See ../../src/hdlTop/axiMasterAgentBfm/axi4_master_agent_bfm.sv(18).
#    Time: 0 ps  Iteration: 0  Region: /hdlTop/inter/m2s_routing[0] File: ../../src/hdlTop/interrconnect.sv
# ** Warning: (vsim-3839) ../../src/hdlTop/interrconnect.sv(322): Variable '/hdlTop/axi4InterfaceHandle[0]/awlen', driven via a port connection, is multiply driven. See ../../src/hdlTop/axiMasterAgentBfm/axi4_master_agent_bfm.sv(18).
#    Time: 0 ps  Iteration: 0  Region: /hdlTop/inter/m2s_routing[0] File: ../../src/hdlTop/interrconnect.sv
# ** Warning: (vsim-3839) ../../src/hdlTop/interrconnect.sv(321): Variable '/hdlTop/axi4InterfaceHandle[0]/awaddr', driven via a port connection, is multiply driven. See ../../src/hdlTop/axiMasterAgentBfm/axi4_master_agent_bfm.sv(18).
#    Time: 0 ps  Iteration: 0  Region: /hdlTop/inter/m2s_routing[0] File: ../../src/hdlTop/interrconnect.sv
# ** Warning: (vsim-3839) ../../src/hdlTop/interrconnect.sv(320): Variable '/hdlTop/axi4InterfaceHandle[0]/awid', driven via a port connection, is multiply driven. See ../../src/hdlTop/axiMasterAgentBfm/axi4_master_agent_bfm.sv(18).
#    Time: 0 ps  Iteration: 0  Region: /hdlTop/inter/m2s_routing[0] File: ../../src/hdlTop/interrconnect.sv
# ** Warning: (vsim-3839) ../../src/hdlTop/interrconnect.sv(316): Variable '/hdlTop/axi4InterfaceHandle[0]/arvalid', driven via a port connection, is multiply driven. See ../../src/hdlTop/axiMasterAgentBfm/axi4_master_agent_bfm.sv(18).
#    Time: 0 ps  Iteration: 0  Region: /hdlTop/inter/m2s_routing[0] File: ../../src/hdlTop/interrconnect.sv
# ** Warning: (vsim-3839) ../../src/hdlTop/interrconnect.sv(315): Variable '/hdlTop/axi4InterfaceHandle[0]/wvalid', driven via a port connection, is multiply driven. See ../../src/hdlTop/axiMasterAgentBfm/axi4_master_agent_bfm.sv(18).
#    Time: 0 ps  Iteration: 0  Region: /hdlTop/inter/m2s_routing[0] File: ../../src/hdlTop/interrconnect.sv
# ** Warning: (vsim-3839) ../../src/hdlTop/interrconnect.sv(314): Variable '/hdlTop/axi4InterfaceHandle[0]/awvalid', driven via a port connection, is multiply driven. See ../../src/hdlTop/axiMasterAgentBfm/axi4_master_agent_bfm.sv(18).
#    Time: 0 ps  Iteration: 0  Region: /hdlTop/inter/m2s_routing[0] File: ../../src/hdlTop/interrconnect.sv
# ** Warning: (vsim-3839) ../../src/hdlTop/interrconnect.sv(351): Variable '/hdlTop/axi4InterfaceHandle[1]/rready', driven via a port connection, is multiply driven. See ../../src/hdlTop/axiMasterAgentBfm/axi4_master_agent_bfm.sv(18).
#    Time: 0 ps  Iteration: 0  Region: /hdlTop/inter/m2s_routing[1] File: ../../src/hdlTop/interrconnect.sv
# ** Warning: (vsim-3839) ../../src/hdlTop/interrconnect.sv(349): Variable '/hdlTop/axi4InterfaceHandle[1]/arvalid', driven via a port connection, is multiply driven. See ../../src/hdlTop/axiMasterAgentBfm/axi4_master_agent_bfm.sv(18).
#    Time: 0 ps  Iteration: 0  Region: /hdlTop/inter/m2s_routing[1] File: ../../src/hdlTop/interrconnect.sv
# ** Warning: (vsim-3839) ../../src/hdlTop/interrconnect.sv(348): Variable '/hdlTop/axi4InterfaceHandle[1]/arqos', driven via a port connection, is multiply driven. See ../../src/hdlTop/axiMasterAgentBfm/axi4_master_agent_bfm.sv(18).
#    Time: 0 ps  Iteration: 0  Region: /hdlTop/inter/m2s_routing[1] File: ../../src/hdlTop/interrconnect.sv
# ** Warning: (vsim-3839) ../../src/hdlTop/interrconnect.sv(347): Variable '/hdlTop/axi4InterfaceHandle[1]/arprot', driven via a port connection, is multiply driven. See ../../src/hdlTop/axiMasterAgentBfm/axi4_master_agent_bfm.sv(18).
#    Time: 0 ps  Iteration: 0  Region: /hdlTop/inter/m2s_routing[1] File: ../../src/hdlTop/interrconnect.sv
# ** Warning: (vsim-3839) ../../src/hdlTop/interrconnect.sv(346): Variable '/hdlTop/axi4InterfaceHandle[1]/arcache', driven via a port connection, is multiply driven. See ../../src/hdlTop/axiMasterAgentBfm/axi4_master_agent_bfm.sv(18).
#    Time: 0 ps  Iteration: 0  Region: /hdlTop/inter/m2s_routing[1] File: ../../src/hdlTop/interrconnect.sv
# ** Warning: (vsim-3839) ../../src/hdlTop/interrconnect.sv(345): Variable '/hdlTop/axi4InterfaceHandle[1]/arlock', driven via a port connection, is multiply driven. See ../../src/hdlTop/axiMasterAgentBfm/axi4_master_agent_bfm.sv(18).
#    Time: 0 ps  Iteration: 0  Region: /hdlTop/inter/m2s_routing[1] File: ../../src/hdlTop/interrconnect.sv
# ** Warning: (vsim-3839) ../../src/hdlTop/interrconnect.sv(344): Variable '/hdlTop/axi4InterfaceHandle[1]/arburst', driven via a port connection, is multiply driven. See ../../src/hdlTop/axiMasterAgentBfm/axi4_master_agent_bfm.sv(18).
#    Time: 0 ps  Iteration: 0  Region: /hdlTop/inter/m2s_routing[1] File: ../../src/hdlTop/interrconnect.sv
# ** Warning: (vsim-3839) ../../src/hdlTop/interrconnect.sv(343): Variable '/hdlTop/axi4InterfaceHandle[1]/arsize', driven via a port connection, is multiply driven. See ../../src/hdlTop/axiMasterAgentBfm/axi4_master_agent_bfm.sv(18).
#    Time: 0 ps  Iteration: 0  Region: /hdlTop/inter/m2s_routing[1] File: ../../src/hdlTop/interrconnect.sv
# ** Warning: (vsim-3839) ../../src/hdlTop/interrconnect.sv(342): Variable '/hdlTop/axi4InterfaceHandle[1]/arlen', driven via a port connection, is multiply driven. See ../../src/hdlTop/axiMasterAgentBfm/axi4_master_agent_bfm.sv(18).
#    Time: 0 ps  Iteration: 0  Region: /hdlTop/inter/m2s_routing[1] File: ../../src/hdlTop/interrconnect.sv
# ** Warning: (vsim-3839) ../../src/hdlTop/interrconnect.sv(341): Variable '/hdlTop/axi4InterfaceHandle[1]/araddr', driven via a port connection, is multiply driven. See ../../src/hdlTop/axiMasterAgentBfm/axi4_master_agent_bfm.sv(18).
#    Time: 0 ps  Iteration: 0  Region: /hdlTop/inter/m2s_routing[1] File: ../../src/hdlTop/interrconnect.sv
# ** Warning: (vsim-3839) ../../src/hdlTop/interrconnect.sv(340): Variable '/hdlTop/axi4InterfaceHandle[1]/arid', driven via a port connection, is multiply driven. See ../../src/hdlTop/axiMasterAgentBfm/axi4_master_agent_bfm.sv(18).
#    Time: 0 ps  Iteration: 0  Region: /hdlTop/inter/m2s_routing[1] File: ../../src/hdlTop/interrconnect.sv
# ** Warning: (vsim-3839) ../../src/hdlTop/interrconnect.sv(335): Variable '/hdlTop/axi4InterfaceHandle[1]/bready', driven via a port connection, is multiply driven. See ../../src/hdlTop/axiMasterAgentBfm/axi4_master_agent_bfm.sv(18).
#    Time: 0 ps  Iteration: 0  Region: /hdlTop/inter/m2s_routing[1] File: ../../src/hdlTop/interrconnect.sv
# ** Warning: (vsim-3839) ../../src/hdlTop/interrconnect.sv(334): Variable '/hdlTop/axi4InterfaceHandle[1]/wvalid', driven via a port connection, is multiply driven. See ../../src/hdlTop/axiMasterAgentBfm/axi4_master_agent_bfm.sv(18).
#    Time: 0 ps  Iteration: 0  Region: /hdlTop/inter/m2s_routing[1] File: ../../src/hdlTop/interrconnect.sv
# ** Warning: (vsim-3839) ../../src/hdlTop/interrconnect.sv(333): Variable '/hdlTop/axi4InterfaceHandle[1]/wlast', driven via a port connection, is multiply driven. See ../../src/hdlTop/axiMasterAgentBfm/axi4_master_agent_bfm.sv(18).
#    Time: 0 ps  Iteration: 0  Region: /hdlTop/inter/m2s_routing[1] File: ../../src/hdlTop/interrconnect.sv
# ** Warning: (vsim-3839) ../../src/hdlTop/interrconnect.sv(332): Variable '/hdlTop/axi4InterfaceHandle[1]/wstrb', driven via a port connection, is multiply driven. See ../../src/hdlTop/axiMasterAgentBfm/axi4_master_agent_bfm.sv(18).
#    Time: 0 ps  Iteration: 0  Region: /hdlTop/inter/m2s_routing[1] File: ../../src/hdlTop/interrconnect.sv
# ** Warning: (vsim-3839) ../../src/hdlTop/interrconnect.sv(331): Variable '/hdlTop/axi4InterfaceHandle[1]/wdata', driven via a port connection, is multiply driven. See ../../src/hdlTop/axiMasterAgentBfm/axi4_master_agent_bfm.sv(18).
#    Time: 0 ps  Iteration: 0  Region: /hdlTop/inter/m2s_routing[1] File: ../../src/hdlTop/interrconnect.sv
# ** Warning: (vsim-3839) ../../src/hdlTop/interrconnect.sv(329): Variable '/hdlTop/axi4InterfaceHandle[1]/awvalid', driven via a port connection, is multiply driven. See ../../src/hdlTop/axiMasterAgentBfm/axi4_master_agent_bfm.sv(18).
#    Time: 0 ps  Iteration: 0  Region: /hdlTop/inter/m2s_routing[1] File: ../../src/hdlTop/interrconnect.sv
# ** Warning: (vsim-3839) ../../src/hdlTop/interrconnect.sv(328): Variable '/hdlTop/axi4InterfaceHandle[1]/awqos', driven via a port connection, is multiply driven. See ../../src/hdlTop/axiMasterAgentBfm/axi4_master_agent_bfm.sv(18).
#    Time: 0 ps  Iteration: 0  Region: /hdlTop/inter/m2s_routing[1] File: ../../src/hdlTop/interrconnect.sv
# ** Warning: (vsim-3839) ../../src/hdlTop/interrconnect.sv(327): Variable '/hdlTop/axi4InterfaceHandle[1]/awprot', driven via a port connection, is multiply driven. See ../../src/hdlTop/axiMasterAgentBfm/axi4_master_agent_bfm.sv(18).
#    Time: 0 ps  Iteration: 0  Region: /hdlTop/inter/m2s_routing[1] File: ../../src/hdlTop/interrconnect.sv
# ** Warning: (vsim-3839) ../../src/hdlTop/interrconnect.sv(326): Variable '/hdlTop/axi4InterfaceHandle[1]/awcache', driven via a port connection, is multiply driven. See ../../src/hdlTop/axiMasterAgentBfm/axi4_master_agent_bfm.sv(18).
#    Time: 0 ps  Iteration: 0  Region: /hdlTop/inter/m2s_routing[1] File: ../../src/hdlTop/interrconnect.sv
# ** Warning: (vsim-3839) ../../src/hdlTop/interrconnect.sv(325): Variable '/hdlTop/axi4InterfaceHandle[1]/awlock', driven via a port connection, is multiply driven. See ../../src/hdlTop/axiMasterAgentBfm/axi4_master_agent_bfm.sv(18).
#    Time: 0 ps  Iteration: 0  Region: /hdlTop/inter/m2s_routing[1] File: ../../src/hdlTop/interrconnect.sv
# ** Warning: (vsim-3839) ../../src/hdlTop/interrconnect.sv(324): Variable '/hdlTop/axi4InterfaceHandle[1]/awburst', driven via a port connection, is multiply driven. See ../../src/hdlTop/axiMasterAgentBfm/axi4_master_agent_bfm.sv(18).
#    Time: 0 ps  Iteration: 0  Region: /hdlTop/inter/m2s_routing[1] File: ../../src/hdlTop/interrconnect.sv
# ** Warning: (vsim-3839) ../../src/hdlTop/interrconnect.sv(323): Variable '/hdlTop/axi4InterfaceHandle[1]/awsize', driven via a port connection, is multiply driven. See ../../src/hdlTop/axiMasterAgentBfm/axi4_master_agent_bfm.sv(18).
#    Time: 0 ps  Iteration: 0  Region: /hdlTop/inter/m2s_routing[1] File: ../../src/hdlTop/interrconnect.sv
# ** Warning: (vsim-3839) ../../src/hdlTop/interrconnect.sv(322): Variable '/hdlTop/axi4InterfaceHandle[1]/awlen', driven via a port connection, is multiply driven. See ../../src/hdlTop/axiMasterAgentBfm/axi4_master_agent_bfm.sv(18).
#    Time: 0 ps  Iteration: 0  Region: /hdlTop/inter/m2s_routing[1] File: ../../src/hdlTop/interrconnect.sv
# ** Warning: (vsim-3839) ../../src/hdlTop/interrconnect.sv(321): Variable '/hdlTop/axi4InterfaceHandle[1]/awaddr', driven via a port connection, is multiply driven. See ../../src/hdlTop/axiMasterAgentBfm/axi4_master_agent_bfm.sv(18).
#    Time: 0 ps  Iteration: 0  Region: /hdlTop/inter/m2s_routing[1] File: ../../src/hdlTop/interrconnect.sv
# ** Warning: (vsim-3839) ../../src/hdlTop/interrconnect.sv(320): Variable '/hdlTop/axi4InterfaceHandle[1]/awid', driven via a port connection, is multiply driven. See ../../src/hdlTop/axiMasterAgentBfm/axi4_master_agent_bfm.sv(18).
#    Time: 0 ps  Iteration: 0  Region: /hdlTop/inter/m2s_routing[1] File: ../../src/hdlTop/interrconnect.sv
# ** Warning: (vsim-3839) ../../src/hdlTop/interrconnect.sv(316): Variable '/hdlTop/axi4InterfaceHandle[1]/arvalid', driven via a port connection, is multiply driven. See ../../src/hdlTop/axiMasterAgentBfm/axi4_master_agent_bfm.sv(18).
#    Time: 0 ps  Iteration: 0  Region: /hdlTop/inter/m2s_routing[1] File: ../../src/hdlTop/interrconnect.sv
# ** Warning: (vsim-3839) ../../src/hdlTop/interrconnect.sv(315): Variable '/hdlTop/axi4InterfaceHandle[1]/wvalid', driven via a port connection, is multiply driven. See ../../src/hdlTop/axiMasterAgentBfm/axi4_master_agent_bfm.sv(18).
#    Time: 0 ps  Iteration: 0  Region: /hdlTop/inter/m2s_routing[1] File: ../../src/hdlTop/interrconnect.sv
# ** Warning: (vsim-3839) ../../src/hdlTop/interrconnect.sv(314): Variable '/hdlTop/axi4InterfaceHandle[1]/awvalid', driven via a port connection, is multiply driven. See ../../src/hdlTop/axiMasterAgentBfm/axi4_master_agent_bfm.sv(18).
#    Time: 0 ps  Iteration: 0  Region: /hdlTop/inter/m2s_routing[1] File: ../../src/hdlTop/interrconnect.sv
# ** Warning: (vsim-3839) ../../src/hdlTop/interrconnect.sv(351): Variable '/hdlTop/axi4InterfaceHandle[2]/rready', driven via a port connection, is multiply driven. See ../../src/hdlTop/axiMasterAgentBfm/axi4_master_agent_bfm.sv(18).
#    Time: 0 ps  Iteration: 0  Region: /hdlTop/inter/m2s_routing[2] File: ../../src/hdlTop/interrconnect.sv
# ** Warning: (vsim-3839) ../../src/hdlTop/interrconnect.sv(349): Variable '/hdlTop/axi4InterfaceHandle[2]/arvalid', driven via a port connection, is multiply driven. See ../../src/hdlTop/axiMasterAgentBfm/axi4_master_agent_bfm.sv(18).
#    Time: 0 ps  Iteration: 0  Region: /hdlTop/inter/m2s_routing[2] File: ../../src/hdlTop/interrconnect.sv
# ** Warning: (vsim-3839) ../../src/hdlTop/interrconnect.sv(348): Variable '/hdlTop/axi4InterfaceHandle[2]/arqos', driven via a port connection, is multiply driven. See ../../src/hdlTop/axiMasterAgentBfm/axi4_master_agent_bfm.sv(18).
#    Time: 0 ps  Iteration: 0  Region: /hdlTop/inter/m2s_routing[2] File: ../../src/hdlTop/interrconnect.sv
# ** Warning: (vsim-3839) ../../src/hdlTop/interrconnect.sv(347): Variable '/hdlTop/axi4InterfaceHandle[2]/arprot', driven via a port connection, is multiply driven. See ../../src/hdlTop/axiMasterAgentBfm/axi4_master_agent_bfm.sv(18).
#    Time: 0 ps  Iteration: 0  Region: /hdlTop/inter/m2s_routing[2] File: ../../src/hdlTop/interrconnect.sv
# ** Warning: (vsim-3839) ../../src/hdlTop/interrconnect.sv(346): Variable '/hdlTop/axi4InterfaceHandle[2]/arcache', driven via a port connection, is multiply driven. See ../../src/hdlTop/axiMasterAgentBfm/axi4_master_agent_bfm.sv(18).
#    Time: 0 ps  Iteration: 0  Region: /hdlTop/inter/m2s_routing[2] File: ../../src/hdlTop/interrconnect.sv
# ** Warning: (vsim-3839) ../../src/hdlTop/interrconnect.sv(345): Variable '/hdlTop/axi4InterfaceHandle[2]/arlock', driven via a port connection, is multiply driven. See ../../src/hdlTop/axiMasterAgentBfm/axi4_master_agent_bfm.sv(18).
#    Time: 0 ps  Iteration: 0  Region: /hdlTop/inter/m2s_routing[2] File: ../../src/hdlTop/interrconnect.sv
# ** Warning: (vsim-3839) ../../src/hdlTop/interrconnect.sv(344): Variable '/hdlTop/axi4InterfaceHandle[2]/arburst', driven via a port connection, is multiply driven. See ../../src/hdlTop/axiMasterAgentBfm/axi4_master_agent_bfm.sv(18).
#    Time: 0 ps  Iteration: 0  Region: /hdlTop/inter/m2s_routing[2] File: ../../src/hdlTop/interrconnect.sv
# ** Warning: (vsim-3839) ../../src/hdlTop/interrconnect.sv(343): Variable '/hdlTop/axi4InterfaceHandle[2]/arsize', driven via a port connection, is multiply driven. See ../../src/hdlTop/axiMasterAgentBfm/axi4_master_agent_bfm.sv(18).
#    Time: 0 ps  Iteration: 0  Region: /hdlTop/inter/m2s_routing[2] File: ../../src/hdlTop/interrconnect.sv
# ** Warning: (vsim-3839) ../../src/hdlTop/interrconnect.sv(342): Variable '/hdlTop/axi4InterfaceHandle[2]/arlen', driven via a port connection, is multiply driven. See ../../src/hdlTop/axiMasterAgentBfm/axi4_master_agent_bfm.sv(18).
#    Time: 0 ps  Iteration: 0  Region: /hdlTop/inter/m2s_routing[2] File: ../../src/hdlTop/interrconnect.sv
# ** Warning: (vsim-3839) ../../src/hdlTop/interrconnect.sv(341): Variable '/hdlTop/axi4InterfaceHandle[2]/araddr', driven via a port connection, is multiply driven. See ../../src/hdlTop/axiMasterAgentBfm/axi4_master_agent_bfm.sv(18).
#    Time: 0 ps  Iteration: 0  Region: /hdlTop/inter/m2s_routing[2] File: ../../src/hdlTop/interrconnect.sv
# ** Warning: (vsim-3839) ../../src/hdlTop/interrconnect.sv(340): Variable '/hdlTop/axi4InterfaceHandle[2]/arid', driven via a port connection, is multiply driven. See ../../src/hdlTop/axiMasterAgentBfm/axi4_master_agent_bfm.sv(18).
#    Time: 0 ps  Iteration: 0  Region: /hdlTop/inter/m2s_routing[2] File: ../../src/hdlTop/interrconnect.sv
# ** Warning: (vsim-3839) ../../src/hdlTop/interrconnect.sv(335): Variable '/hdlTop/axi4InterfaceHandle[2]/bready', driven via a port connection, is multiply driven. See ../../src/hdlTop/axiMasterAgentBfm/axi4_master_agent_bfm.sv(18).
#    Time: 0 ps  Iteration: 0  Region: /hdlTop/inter/m2s_routing[2] File: ../../src/hdlTop/interrconnect.sv
# ** Warning: (vsim-3839) ../../src/hdlTop/interrconnect.sv(334): Variable '/hdlTop/axi4InterfaceHandle[2]/wvalid', driven via a port connection, is multiply driven. See ../../src/hdlTop/axiMasterAgentBfm/axi4_master_agent_bfm.sv(18).
#    Time: 0 ps  Iteration: 0  Region: /hdlTop/inter/m2s_routing[2] File: ../../src/hdlTop/interrconnect.sv
# ** Warning: (vsim-3839) ../../src/hdlTop/interrconnect.sv(333): Variable '/hdlTop/axi4InterfaceHandle[2]/wlast', driven via a port connection, is multiply driven. See ../../src/hdlTop/axiMasterAgentBfm/axi4_master_agent_bfm.sv(18).
#    Time: 0 ps  Iteration: 0  Region: /hdlTop/inter/m2s_routing[2] File: ../../src/hdlTop/interrconnect.sv
# ** Warning: (vsim-3839) ../../src/hdlTop/interrconnect.sv(332): Variable '/hdlTop/axi4InterfaceHandle[2]/wstrb', driven via a port connection, is multiply driven. See ../../src/hdlTop/axiMasterAgentBfm/axi4_master_agent_bfm.sv(18).
#    Time: 0 ps  Iteration: 0  Region: /hdlTop/inter/m2s_routing[2] File: ../../src/hdlTop/interrconnect.sv
# ** Warning: (vsim-3839) ../../src/hdlTop/interrconnect.sv(331): Variable '/hdlTop/axi4InterfaceHandle[2]/wdata', driven via a port connection, is multiply driven. See ../../src/hdlTop/axiMasterAgentBfm/axi4_master_agent_bfm.sv(18).
#    Time: 0 ps  Iteration: 0  Region: /hdlTop/inter/m2s_routing[2] File: ../../src/hdlTop/interrconnect.sv
# ** Warning: (vsim-3839) ../../src/hdlTop/interrconnect.sv(329): Variable '/hdlTop/axi4InterfaceHandle[2]/awvalid', driven via a port connection, is multiply driven. See ../../src/hdlTop/axiMasterAgentBfm/axi4_master_agent_bfm.sv(18).
#    Time: 0 ps  Iteration: 0  Region: /hdlTop/inter/m2s_routing[2] File: ../../src/hdlTop/interrconnect.sv
# ** Warning: (vsim-3839) ../../src/hdlTop/interrconnect.sv(328): Variable '/hdlTop/axi4InterfaceHandle[2]/awqos', driven via a port connection, is multiply driven. See ../../src/hdlTop/axiMasterAgentBfm/axi4_master_agent_bfm.sv(18).
#    Time: 0 ps  Iteration: 0  Region: /hdlTop/inter/m2s_routing[2] File: ../../src/hdlTop/interrconnect.sv
# ** Warning: (vsim-3839) ../../src/hdlTop/interrconnect.sv(327): Variable '/hdlTop/axi4InterfaceHandle[2]/awprot', driven via a port connection, is multiply driven. See ../../src/hdlTop/axiMasterAgentBfm/axi4_master_agent_bfm.sv(18).
#    Time: 0 ps  Iteration: 0  Region: /hdlTop/inter/m2s_routing[2] File: ../../src/hdlTop/interrconnect.sv
# ** Warning: (vsim-3839) ../../src/hdlTop/interrconnect.sv(326): Variable '/hdlTop/axi4InterfaceHandle[2]/awcache', driven via a port connection, is multiply driven. See ../../src/hdlTop/axiMasterAgentBfm/axi4_master_agent_bfm.sv(18).
#    Time: 0 ps  Iteration: 0  Region: /hdlTop/inter/m2s_routing[2] File: ../../src/hdlTop/interrconnect.sv
# ** Warning: (vsim-3839) ../../src/hdlTop/interrconnect.sv(325): Variable '/hdlTop/axi4InterfaceHandle[2]/awlock', driven via a port connection, is multiply driven. See ../../src/hdlTop/axiMasterAgentBfm/axi4_master_agent_bfm.sv(18).
#    Time: 0 ps  Iteration: 0  Region: /hdlTop/inter/m2s_routing[2] File: ../../src/hdlTop/interrconnect.sv
# ** Warning: (vsim-3839) ../../src/hdlTop/interrconnect.sv(324): Variable '/hdlTop/axi4InterfaceHandle[2]/awburst', driven via a port connection, is multiply driven. See ../../src/hdlTop/axiMasterAgentBfm/axi4_master_agent_bfm.sv(18).
#    Time: 0 ps  Iteration: 0  Region: /hdlTop/inter/m2s_routing[2] File: ../../src/hdlTop/interrconnect.sv
# ** Warning: (vsim-3839) ../../src/hdlTop/interrconnect.sv(323): Variable '/hdlTop/axi4InterfaceHandle[2]/awsize', driven via a port connection, is multiply driven. See ../../src/hdlTop/axiMasterAgentBfm/axi4_master_agent_bfm.sv(18).
#    Time: 0 ps  Iteration: 0  Region: /hdlTop/inter/m2s_routing[2] File: ../../src/hdlTop/interrconnect.sv
# ** Warning: (vsim-3839) ../../src/hdlTop/interrconnect.sv(322): Variable '/hdlTop/axi4InterfaceHandle[2]/awlen', driven via a port connection, is multiply driven. See ../../src/hdlTop/axiMasterAgentBfm/axi4_master_agent_bfm.sv(18).
#    Time: 0 ps  Iteration: 0  Region: /hdlTop/inter/m2s_routing[2] File: ../../src/hdlTop/interrconnect.sv
# ** Warning: (vsim-3839) ../../src/hdlTop/interrconnect.sv(321): Variable '/hdlTop/axi4InterfaceHandle[2]/awaddr', driven via a port connection, is multiply driven. See ../../src/hdlTop/axiMasterAgentBfm/axi4_master_agent_bfm.sv(18).
#    Time: 0 ps  Iteration: 0  Region: /hdlTop/inter/m2s_routing[2] File: ../../src/hdlTop/interrconnect.sv
# ** Warning: (vsim-3839) ../../src/hdlTop/interrconnect.sv(320): Variable '/hdlTop/axi4InterfaceHandle[2]/awid', driven via a port connection, is multiply driven. See ../../src/hdlTop/axiMasterAgentBfm/axi4_master_agent_bfm.sv(18).
#    Time: 0 ps  Iteration: 0  Region: /hdlTop/inter/m2s_routing[2] File: ../../src/hdlTop/interrconnect.sv
# ** Warning: (vsim-3839) ../../src/hdlTop/interrconnect.sv(316): Variable '/hdlTop/axi4InterfaceHandle[2]/arvalid', driven via a port connection, is multiply driven. See ../../src/hdlTop/axiMasterAgentBfm/axi4_master_agent_bfm.sv(18).
#    Time: 0 ps  Iteration: 0  Region: /hdlTop/inter/m2s_routing[2] File: ../../src/hdlTop/interrconnect.sv
# ** Warning: (vsim-3839) ../../src/hdlTop/interrconnect.sv(315): Variable '/hdlTop/axi4InterfaceHandle[2]/wvalid', driven via a port connection, is multiply driven. See ../../src/hdlTop/axiMasterAgentBfm/axi4_master_agent_bfm.sv(18).
#    Time: 0 ps  Iteration: 0  Region: /hdlTop/inter/m2s_routing[2] File: ../../src/hdlTop/interrconnect.sv
# ** Warning: (vsim-3839) ../../src/hdlTop/interrconnect.sv(314): Variable '/hdlTop/axi4InterfaceHandle[2]/awvalid', driven via a port connection, is multiply driven. See ../../src/hdlTop/axiMasterAgentBfm/axi4_master_agent_bfm.sv(18).
#    Time: 0 ps  Iteration: 0  Region: /hdlTop/inter/m2s_routing[2] File: ../../src/hdlTop/interrconnect.sv
# ** Warning: (vsim-3839) ../../src/hdlTop/interrconnect.sv(351): Variable '/hdlTop/axi4InterfaceHandle[3]/rready', driven via a port connection, is multiply driven. See ../../src/hdlTop/axiMasterAgentBfm/axi4_master_agent_bfm.sv(18).
#    Time: 0 ps  Iteration: 0  Region: /hdlTop/inter/m2s_routing[3] File: ../../src/hdlTop/interrconnect.sv
# ** Warning: (vsim-3839) ../../src/hdlTop/interrconnect.sv(349): Variable '/hdlTop/axi4InterfaceHandle[3]/arvalid', driven via a port connection, is multiply driven. See ../../src/hdlTop/axiMasterAgentBfm/axi4_master_agent_bfm.sv(18).
#    Time: 0 ps  Iteration: 0  Region: /hdlTop/inter/m2s_routing[3] File: ../../src/hdlTop/interrconnect.sv
# ** Warning: (vsim-3839) ../../src/hdlTop/interrconnect.sv(348): Variable '/hdlTop/axi4InterfaceHandle[3]/arqos', driven via a port connection, is multiply driven. See ../../src/hdlTop/axiMasterAgentBfm/axi4_master_agent_bfm.sv(18).
#    Time: 0 ps  Iteration: 0  Region: /hdlTop/inter/m2s_routing[3] File: ../../src/hdlTop/interrconnect.sv
# ** Warning: (vsim-3839) ../../src/hdlTop/interrconnect.sv(347): Variable '/hdlTop/axi4InterfaceHandle[3]/arprot', driven via a port connection, is multiply driven. See ../../src/hdlTop/axiMasterAgentBfm/axi4_master_agent_bfm.sv(18).
#    Time: 0 ps  Iteration: 0  Region: /hdlTop/inter/m2s_routing[3] File: ../../src/hdlTop/interrconnect.sv
# ** Warning: (vsim-3839) ../../src/hdlTop/interrconnect.sv(346): Variable '/hdlTop/axi4InterfaceHandle[3]/arcache', driven via a port connection, is multiply driven. See ../../src/hdlTop/axiMasterAgentBfm/axi4_master_agent_bfm.sv(18).
#    Time: 0 ps  Iteration: 0  Region: /hdlTop/inter/m2s_routing[3] File: ../../src/hdlTop/interrconnect.sv
# ** Warning: (vsim-3839) ../../src/hdlTop/interrconnect.sv(345): Variable '/hdlTop/axi4InterfaceHandle[3]/arlock', driven via a port connection, is multiply driven. See ../../src/hdlTop/axiMasterAgentBfm/axi4_master_agent_bfm.sv(18).
#    Time: 0 ps  Iteration: 0  Region: /hdlTop/inter/m2s_routing[3] File: ../../src/hdlTop/interrconnect.sv
# ** Warning: (vsim-3839) ../../src/hdlTop/interrconnect.sv(344): Variable '/hdlTop/axi4InterfaceHandle[3]/arburst', driven via a port connection, is multiply driven. See ../../src/hdlTop/axiMasterAgentBfm/axi4_master_agent_bfm.sv(18).
#    Time: 0 ps  Iteration: 0  Region: /hdlTop/inter/m2s_routing[3] File: ../../src/hdlTop/interrconnect.sv
# ** Warning: (vsim-3839) ../../src/hdlTop/interrconnect.sv(343): Variable '/hdlTop/axi4InterfaceHandle[3]/arsize', driven via a port connection, is multiply driven. See ../../src/hdlTop/axiMasterAgentBfm/axi4_master_agent_bfm.sv(18).
#    Time: 0 ps  Iteration: 0  Region: /hdlTop/inter/m2s_routing[3] File: ../../src/hdlTop/interrconnect.sv
# ** Warning: (vsim-3839) ../../src/hdlTop/interrconnect.sv(342): Variable '/hdlTop/axi4InterfaceHandle[3]/arlen', driven via a port connection, is multiply driven. See ../../src/hdlTop/axiMasterAgentBfm/axi4_master_agent_bfm.sv(18).
#    Time: 0 ps  Iteration: 0  Region: /hdlTop/inter/m2s_routing[3] File: ../../src/hdlTop/interrconnect.sv
# ** Warning: (vsim-3839) ../../src/hdlTop/interrconnect.sv(341): Variable '/hdlTop/axi4InterfaceHandle[3]/araddr', driven via a port connection, is multiply driven. See ../../src/hdlTop/axiMasterAgentBfm/axi4_master_agent_bfm.sv(18).
#    Time: 0 ps  Iteration: 0  Region: /hdlTop/inter/m2s_routing[3] File: ../../src/hdlTop/interrconnect.sv
# ** Warning: (vsim-3839) ../../src/hdlTop/interrconnect.sv(340): Variable '/hdlTop/axi4InterfaceHandle[3]/arid', driven via a port connection, is multiply driven. See ../../src/hdlTop/axiMasterAgentBfm/axi4_master_agent_bfm.sv(18).
#    Time: 0 ps  Iteration: 0  Region: /hdlTop/inter/m2s_routing[3] File: ../../src/hdlTop/interrconnect.sv
# ** Warning: (vsim-3839) ../../src/hdlTop/interrconnect.sv(335): Variable '/hdlTop/axi4InterfaceHandle[3]/bready', driven via a port connection, is multiply driven. See ../../src/hdlTop/axiMasterAgentBfm/axi4_master_agent_bfm.sv(18).
#    Time: 0 ps  Iteration: 0  Region: /hdlTop/inter/m2s_routing[3] File: ../../src/hdlTop/interrconnect.sv
# ** Warning: (vsim-3839) ../../src/hdlTop/interrconnect.sv(334): Variable '/hdlTop/axi4InterfaceHandle[3]/wvalid', driven via a port connection, is multiply driven. See ../../src/hdlTop/axiMasterAgentBfm/axi4_master_agent_bfm.sv(18).
#    Time: 0 ps  Iteration: 0  Region: /hdlTop/inter/m2s_routing[3] File: ../../src/hdlTop/interrconnect.sv
# ** Warning: (vsim-3839) ../../src/hdlTop/interrconnect.sv(333): Variable '/hdlTop/axi4InterfaceHandle[3]/wlast', driven via a port connection, is multiply driven. See ../../src/hdlTop/axiMasterAgentBfm/axi4_master_agent_bfm.sv(18).
#    Time: 0 ps  Iteration: 0  Region: /hdlTop/inter/m2s_routing[3] File: ../../src/hdlTop/interrconnect.sv
# ** Warning: (vsim-3839) ../../src/hdlTop/interrconnect.sv(332): Variable '/hdlTop/axi4InterfaceHandle[3]/wstrb', driven via a port connection, is multiply driven. See ../../src/hdlTop/axiMasterAgentBfm/axi4_master_agent_bfm.sv(18).
#    Time: 0 ps  Iteration: 0  Region: /hdlTop/inter/m2s_routing[3] File: ../../src/hdlTop/interrconnect.sv
# ** Warning: (vsim-3839) ../../src/hdlTop/interrconnect.sv(331): Variable '/hdlTop/axi4InterfaceHandle[3]/wdata', driven via a port connection, is multiply driven. See ../../src/hdlTop/axiMasterAgentBfm/axi4_master_agent_bfm.sv(18).
#    Time: 0 ps  Iteration: 0  Region: /hdlTop/inter/m2s_routing[3] File: ../../src/hdlTop/interrconnect.sv
# ** Warning: (vsim-3839) ../../src/hdlTop/interrconnect.sv(329): Variable '/hdlTop/axi4InterfaceHandle[3]/awvalid', driven via a port connection, is multiply driven. See ../../src/hdlTop/axiMasterAgentBfm/axi4_master_agent_bfm.sv(18).
#    Time: 0 ps  Iteration: 0  Region: /hdlTop/inter/m2s_routing[3] File: ../../src/hdlTop/interrconnect.sv
# ** Warning: (vsim-3839) ../../src/hdlTop/interrconnect.sv(328): Variable '/hdlTop/axi4InterfaceHandle[3]/awqos', driven via a port connection, is multiply driven. See ../../src/hdlTop/axiMasterAgentBfm/axi4_master_agent_bfm.sv(18).
#    Time: 0 ps  Iteration: 0  Region: /hdlTop/inter/m2s_routing[3] File: ../../src/hdlTop/interrconnect.sv
# ** Warning: (vsim-3839) ../../src/hdlTop/interrconnect.sv(327): Variable '/hdlTop/axi4InterfaceHandle[3]/awprot', driven via a port connection, is multiply driven. See ../../src/hdlTop/axiMasterAgentBfm/axi4_master_agent_bfm.sv(18).
#    Time: 0 ps  Iteration: 0  Region: /hdlTop/inter/m2s_routing[3] File: ../../src/hdlTop/interrconnect.sv
# ** Warning: (vsim-3839) ../../src/hdlTop/interrconnect.sv(326): Variable '/hdlTop/axi4InterfaceHandle[3]/awcache', driven via a port connection, is multiply driven. See ../../src/hdlTop/axiMasterAgentBfm/axi4_master_agent_bfm.sv(18).
#    Time: 0 ps  Iteration: 0  Region: /hdlTop/inter/m2s_routing[3] File: ../../src/hdlTop/interrconnect.sv
# ** Warning: (vsim-3839) ../../src/hdlTop/interrconnect.sv(325): Variable '/hdlTop/axi4InterfaceHandle[3]/awlock', driven via a port connection, is multiply driven. See ../../src/hdlTop/axiMasterAgentBfm/axi4_master_agent_bfm.sv(18).
#    Time: 0 ps  Iteration: 0  Region: /hdlTop/inter/m2s_routing[3] File: ../../src/hdlTop/interrconnect.sv
# ** Warning: (vsim-3839) ../../src/hdlTop/interrconnect.sv(324): Variable '/hdlTop/axi4InterfaceHandle[3]/awburst', driven via a port connection, is multiply driven. See ../../src/hdlTop/axiMasterAgentBfm/axi4_master_agent_bfm.sv(18).
#    Time: 0 ps  Iteration: 0  Region: /hdlTop/inter/m2s_routing[3] File: ../../src/hdlTop/interrconnect.sv
# ** Warning: (vsim-3839) ../../src/hdlTop/interrconnect.sv(323): Variable '/hdlTop/axi4InterfaceHandle[3]/awsize', driven via a port connection, is multiply driven. See ../../src/hdlTop/axiMasterAgentBfm/axi4_master_agent_bfm.sv(18).
#    Time: 0 ps  Iteration: 0  Region: /hdlTop/inter/m2s_routing[3] File: ../../src/hdlTop/interrconnect.sv
# ** Warning: (vsim-3839) ../../src/hdlTop/interrconnect.sv(322): Variable '/hdlTop/axi4InterfaceHandle[3]/awlen', driven via a port connection, is multiply driven. See ../../src/hdlTop/axiMasterAgentBfm/axi4_master_agent_bfm.sv(18).
#    Time: 0 ps  Iteration: 0  Region: /hdlTop/inter/m2s_routing[3] File: ../../src/hdlTop/interrconnect.sv
# ** Warning: (vsim-3839) ../../src/hdlTop/interrconnect.sv(321): Variable '/hdlTop/axi4InterfaceHandle[3]/awaddr', driven via a port connection, is multiply driven. See ../../src/hdlTop/axiMasterAgentBfm/axi4_master_agent_bfm.sv(18).
#    Time: 0 ps  Iteration: 0  Region: /hdlTop/inter/m2s_routing[3] File: ../../src/hdlTop/interrconnect.sv
# ** Warning: (vsim-3839) ../../src/hdlTop/interrconnect.sv(320): Variable '/hdlTop/axi4InterfaceHandle[3]/awid', driven via a port connection, is multiply driven. See ../../src/hdlTop/axiMasterAgentBfm/axi4_master_agent_bfm.sv(18).
#    Time: 0 ps  Iteration: 0  Region: /hdlTop/inter/m2s_routing[3] File: ../../src/hdlTop/interrconnect.sv
